#Digilent WaveForms Network Analyzer - Bode
#Device Name: Discovery2
#Serial Number: SN:210321A18F9B
#Date Time: 2017-05-23 10:50::46.873

Frequency (Hz),Channel 1 Magnitude (dB),Channel 2 Magnitude (dB),Channel 2 Phase (°)
20.000000000000021,0.15868718561840786,-5.6669391440450489,-158.48103613230774
20.013821666009239,0.15672014693162681,-5.604714721780546,-158.1418995034916
20.02765288394102,0.15963040315434721,-5.6084867889720496,-157.841907050738
20.04149366039654,0.15871043333669299,-5.5855553480448776,-158.28200299754781
20.055344001981531,0.15810314760043881,-5.8627123846194964,-157.74339226465611
20.0692039153063,0.16072996178812238,-5.4746006144296313,-158.20895490951858
20.083073406985712,0.16307852500072326,-5.7206557211873674,-159.07408796771665
20.09695248363921,0.15779404678254114,-5.7065570465577373,-158.25934197976505
20.11084115189081,0.15998295909015908,-5.9432717420163019,-159.5711371921729
20.124739418369124,0.15776343025238312,-5.6919620040651084,-157.71176263614632
20.138647289707265,0.15862860741756019,-5.4482976428618759,-158.42362594597913
20.152564772543055,0.15934776106572093,-5.4262584121466908,-158.4428570589136
20.166491873518837,0.16144751257806386,-5.9068898827159728,-157.69662161879853
20.180428599281505,0.15711707120643303,-5.8412558335484279,-158.61177075836471
20.194374956482591,0.15750695494140568,-5.7675343754094772,-158.80954281354937
20.208330951778283,0.1623490200340722,-5.8474317752358971,-159.07306843826746
20.222296591829245,0.15684706794722017,-5.787573767039377,-158.42272249606884
20.236271883300827,0.16234947426178808,-5.8078744938803073,-159.35864116977544
20.250256832862963,0.15808816035253279,-5.7969820550447011,-159.64232164494769
20.264251447190198,0.1590534720949684,-5.6000093135889291,-158.89916213683432
20.278255732961693,0.15903972143080819,-5.4209182921563492,-158.60305412349359
20.292269696861215,0.15767179895829636,-5.7622184907576992,-158.64851150096735
20.306293345577167,0.15879154076925447,-5.6807949498799246,-159.18310732765514
20.320326685802556,0.15951257552332063,-5.8427091952577257,-158.48457422962323
20.334369724235025,0.16072045293117965,-5.5589183896917573,-158.87660317505464
20.34842246757686,0.16073839883930016,-5.6889628495804088,-158.84367631089393
20.362484922534907,0.16014016708793791,-5.5583261620350104,-158.63488415645131
20.376557095820758,0.15758370513578385,-5.5020727717610622,-158.82533350060325
20.390638994150589,0.15900380378005577,-5.6854625280814739,-159.03596858762197
20.404730624245172,0.1575400470266618,-5.6658440746359844,-159.44351373686345
20.418831992829968,0.15970977150549748,-5.5544196864783526,-158.60185901458772
20.43294310663515,0.15580475774055305,-5.4493837598635144,-158.50776323197488
20.447063972395416,0.15373165206256914,-5.6051587851935007,-159.04487797953246
20.461194596850191,0.16114444892974233,-5.7890043002543292,-159.39782549324642
20.475334986743555,0.15932176245765106,-5.4714676654333871,-158.93508723185576
20.489485148824237,0.15716603262429438,-5.6522980341871021,-159.03686063711899
20.50364508984563,0.15560255016366509,-5.2818707149759758,-159.21883560411655
20.517814816565799,0.15912918876545445,-5.748946242661229,-159.36732096728909
20.531994335747481,0.16143725683856713,-5.6266097277587654,-158.75407432601762
20.546183654158071,0.15801391257429079,-5.7865328945911907,-158.70269320336303
20.560382778569661,0.16125859165616635,-5.4657180930351732,-158.96328825991137
20.574591715759038,0.15904060408412674,-5.6707027178946303,-159.64214193125841
20.588810472507578,0.15657130221801374,-5.6392156031055602,-159.47298181688839
20.603039055601485,0.15898923843802532,-5.7271931270861618,-159.02698556091002
20.617277471831574,0.15996284736915142,-5.6211734350315821,-159.49997875946292
20.631525727993328,0.15610835392449113,-5.6470344292532335,-158.86967753380026
20.645783830886948,0.15785958145270393,-5.5941047046810946,-159.75380036333786
20.660051787317421,0.16141616203703396,-5.5559719445417333,-159.21945030289965
20.674329604094297,0.15859131343086033,-5.6081719712841958,-160.01803236978796
20.68861728803191,0.16337093133458974,-5.7378834562810219,-159.26545222418582
20.702914845949294,0.1590345996771757,-5.7029779329622512,-159.56136949923291
20.717222284670193,0.15927975391970889,-5.7093786978957839,-159.54283394108359
20.731539611023067,0.15766202212645508,-5.7060198917508176,-159.49811111029365
20.745866831841088,0.16022467064081136,-5.7415252995448949,-159.44314275195944
20.760203953962158,0.15805147739806816,-5.6601288603451323,-159.72792428615452
20.774550984228906,0.15587566806326417,-5.7391048706126586,-159.79084216485526
20.78890792948868,0.1600853787650045,-5.8664029336931565,-160.09994265425794
20.803274796593591,0.15669084854694332,-5.7728900973070987,-159.08843191302432
20.817651592400392,0.16044827579204915,-6.0912468096789087,-160.36088479042081
20.832038323770714,0.15828000696197286,-5.4972631315910592,-159.66369132604692
20.846434997570853,0.16125877647461023,-5.5860804408751461,-159.7546510351888
20.86084162067182,0.16035180545986824,-5.7845525596834415,-159.60880749297431
20.875258199949403,0.16169411052504534,-6.1918849146906165,-159.86959323444859
20.889684742284217,0.15725087699852536,-5.6121784603325731,-159.24601683282458
20.904121254561506,0.15616299899195515,-5.6877485263569234,-159.93468758159833
20.918567743671343,0.16003281146349624,-5.4639525766856911,-159.89705172443936
20.933024216508553,0.15853573097273879,-5.5845444269667119,-159.54861892957157
20.947490679972727,0.15912126029297397,-5.5595871345835777,-160.1100909601993
20.961967140968213,0.15935354958084294,-5.5552012446128476,-160.14769927276166
20.976453606404149,0.15834156238651409,-5.9349164615776395,-159.80684868008416
20.990950083194427,0.1566670561368797,-5.6000718529443629,-160.17746820108152
21.005456578257732,0.15767684676275803,-5.7669182980865594,-160.05780963900023
21.019973098517521,0.15883321022202426,-5.4909847923823953,-159.39921735012214
21.034499650902067,0.16082097814489554,-5.7379430697076597,-160.04941592413732
21.049036242344336,0.15616428575874061,-5.3680390804671934,-159.51937442307781
21.063582879782217,0.15875596945899936,-5.7286174864928743,-159.93514165796796
21.078139570158328,0.15943868642487746,-5.6350643148033495,-159.89308532780228
21.092706320420028,0.15510120216391363,-5.6534642456115902,-159.93771143641496
21.107283137519595,0.16062752388273965,-5.6777984915648858,-159.98653139955152
21.121870028414058,0.1580039215421018,-5.4796622811726223,-159.76832551505845
21.136467000065199,0.1578906607368058,-5.3697164796654739,-160.1284414371313
21.151074059439665,0.16162820898961819,-5.5994689020968895,-160.11463291759094
21.165691213508975,0.1586331808277627,-5.4525105217997618,-160.04373069941491
21.180318469249347,0.1616706579158616,-5.7174896775816055,-160.04395204561263
21.194955833641888,0.15639510001824677,-6.0414774291066795,-160.73203431449872
21.209603313672524,0.1572818430656856,-5.5137551810791239,-159.93096476806011
21.224260916332003,0.15824060193615153,-5.542555615048439,-160.31814952327409
21.238928648615904,0.15718747978605474,-5.5465210701154035,-160.18228216419271
21.253606517524641,0.15984991671699381,-5.3177285389123465,-159.99915600743671
21.268294530063471,0.15734882032237352,-5.6933271810235127,-160.59279881686507
21.282992693242484,0.15779888920863339,-5.5525978781060035,-160.7923229704293
21.297701014076612,0.15896165427949333,-5.4923785225359563,-159.94259457108882
21.312419499585673,0.15937957659793317,-5.7597663581150496,-159.88222988729302
21.327148156794234,0.16182541627754321,-5.7992716732166452,-160.97000404070334
21.341886992731848,0.155797816686991,-5.5633615161818746,-160.25516344365363
21.356636014432869,0.15860449151127526,-5.3684285972207348,-160.11750308931997
21.371395228936468,0.1592768053000273,-5.4486121587675989,-160.29834835837352
21.386164643286712,0.15808697376612305,-5.4251170738503394,-160.37729199483741
21.400944264532619,0.15797781097716096,-5.2533152221478421,-160.39798954993
21.415734099727931,0.1568249031171674,-5.4053179134782656,-160.29269322115215
21.430534155931365,0.16030761981866967,-5.627629806661667,-159.9582492460296
21.445344440206483,0.15501417610014387,-5.4952021127422368,-160.1238716703686
21.460164959621743,0.15827183758381125,-5.4756876219241217,-160.32546687460683
21.474995721250476,0.15910309664310679,-5.5882986747040295,-160.29604291835383
21.4898367321709,0.15731645051552448,-5.3224033197570408,-160.33078251286091
21.504687999466132,0.15956198391006821,-5.6922491172765612,-159.99712282381836
21.519549530224186,0.1575066553520047,-5.8700427534155084,-160.47552614257987
21.534421331537967,0.15944897886520967,-5.6029616321445053,-160.50478470098753
21.549303410505306,0.15769695404588543,-5.3618331339584246,-159.9943841161714
21.56419577422885,0.15797115609092199,-5.7049716350473014,-160.4453966608765
21.579098429816284,0.16004824427035946,-5.6908663289306896,-160.23045670269624
21.594011384380153,0.16112780457967826,-5.6840437658470648,-160.40100419434262
21.608934645037863,0.15899730379321331,-5.4839215694532566,-159.93571658494105
21.623868218911781,0.15852808357332893,-5.3771159152712222,-160.43018233009826
21.638812113129259,0.16145463822932804,-5.3843890728270978,-160.75406654521782
21.65376633482245,0.15766409657124825,-5.4487339059269679,-160.57399844264137
21.668730891128529,0.16233266471489288,-5.7336488800047878,-160.24559513479423
21.683705789189574,0.16013271514014105,-5.3767971637598571,-160.62854431375416
21.698691036152589,0.15754396756651123,-5.5282555470337122,-160.56774610698858
21.713686639169534,0.15936839971252309,-5.4170323616183547,-160.926900831697
21.728692605397303,0.15860533051821291,-5.2834033965020915,-160.63197482320174
21.743708941997742,0.15612125686064413,-5.6062045582599769,-160.42882409155456
21.758735656137638,0.16142709224051002,-5.5624898007022781,-160.95860488346057
21.773772754988741,0.15951588673364819,-5.3758374364949946,-160.72366591577153
21.788820245727766,0.16040026574193689,-5.5699960473914381,-160.96514833145642
21.803878135536308,0.1589321200212695,-5.0337285057672254,-160.81849735924885
21.818946431601059,0.16004810947612458,-5.7801944608780733,-160.40480303561739
21.834025141113617,0.16058351348307337,-5.6375563150577914,-160.37873793141895
21.84911427127048,0.16018140806574818,-5.4538013588952525,-161.16276952310059
21.864213829273197,0.15753772183613127,-5.4961108542613877,-161.01794845604724
21.879323822328335,0.15826908244996499,-5.2630767423419789,-160.48217936771564
21.894444257647326,0.15936504656312328,-5.2689064521801052,-160.87855247601698
21.909575142446656,0.16068441261738908,-5.6210122755118448,-161.02287794367271
21.924716483947794,0.15657894711267759,-5.4957585835370368,-160.51866973530645
21.939868289377191,0.15781980121993122,-5.4588676928878668,-161.22105396839953
21.95503056596629,0.16119817884080978,-5.6601838994161371,-160.8577888263182
21.970203320951541,0.15866765989909618,-5.3658969922839947,-160.86694972828644
21.985386561574376,0.15998895227844703,-5.4986689499265884,-160.28708455481006
22.00058029508126,0.1596868601791131,-5.5128804726355369,-160.13813761707772
22.015784528723639,0.15719316553294482,-5.6575133328808729,-160.88251372616534
22.030999269758009,0.15810057032621866,-5.5451679355061394,-161.37718520227665
22.04622452544578,0.15584475411323198,-5.3615393023279072,-160.70158148007394
22.061460303053529,0.15828354287906216,-5.4391730167818553,-160.74725827812327
22.076706609852774,0.15705554842631858,-5.5849467710174059,-160.27121999312178
22.091963453120016,0.16001710884206491,-5.4903866641948138,-160.69249189753964
22.10723084013684,0.15683546175196048,-5.5444573139106783,-161.32592689582253
22.122508778189914,0.16282093708614162,-5.5027774007645025,-160.76840871636807
22.137797274570818,0.15809055802098404,-5.7205030962123793,-160.73049396691783
22.153096336576262,0.16024605457304938,-5.5059625535764383,-161.31874853793431
22.168405971507973,0.15710880469588551,-5.5648447032315609,-161.12484077041958
22.183726186672722,0.15928850019136273,-5.7698321195150681,-160.67139560947348
22.199056989382328,0.15938441229670514,-5.6302290028795987,-161.52489542424644
22.214398386953672,0.15908946348401815,-5.5442739719646745,-161.10987598341455
22.22975038670868,0.15788344373397115,-5.4830181239720943,-161.10496294922368
22.245112995974349,0.15839431220406308,-5.4092563058017173,-161.1008916192734
22.260486222082733,0.15832057813375444,-5.6424716115745337,-161.10934937322202
22.27587007237095,0.15673416148862507,-5.4576851824784054,-160.77391586272017
22.291264554181204,0.1577136423970166,-5.4311756763648518,-160.9726436844108
22.306669674860757,0.1591641680677604,-5.8895113837827751,-161.17337264066856
22.322085441761971,0.15730170513684555,-5.2905150071566442,-161.3872168692584
22.337511862242213,0.15718751757369284,-5.3954768482429296,-161.29353641037338
22.352948943664057,0.15789483120487297,-5.3883078367334161,-161.53207153110702
22.368396693395102,0.15751914266123418,-5.2873563096220639,-161.27162263075621
22.38385511880799,0.15809342318069924,-5.637632687284766,-161.53413577964622
22.399324227280509,0.15888741716798191,-5.642655882534684,-160.76028600737413
22.414804026195615,0.16040705811210348,-5.7744062622925068,-161.7708195533138
22.430294522941224,0.15766557981482118,-5.5334864134584825,-161.51777912184957
22.44579572491045,0.15929692525425279,-5.8168953054671757,-160.64157315040154
22.461307639501491,0.15983949478783027,-5.6323372704911732,-161.76904541179772
22.476830274117663,0.15896006649641556,-5.2499645902564742,-161.64019871940172
22.492363636167404,0.1578964485597005,-5.7071009968973723,-161.31531919447892
22.507907733064254,0.1590312504626693,-5.6649910606165772,-162.0289104513935
22.523462572226887,0.15761540433838245,-5.4053802374165851,-161.27891793444002
22.539028161079109,0.15890624419028687,-5.4826156363705998,-160.74852201320826
22.554604507049849,0.15793467157012739,-5.6835927393388541,-161.55234543147571
22.570191617573194,0.15941996754422302,-5.2300108801109415,-161.75088541190377
22.585789500088278,0.15673498688144205,-5.2255648641381649,-161.38048111655681
22.601398162039516,0.15671131037631247,-5.5133411168685473,-161.59066634202176
22.617017610876392,0.15723308492066118,-5.3823706525489143,-161.43284598546302
22.632647854053499,0.15604429352812385,-5.5365751583991951,-161.19406279210352
22.648288899030621,0.15821773370307032,-5.3253762060200591,-160.99497338506268
22.663940753272779,0.15868990292925736,-5.6397493639607665,-161.78980774532559
22.679603424250001,0.15828309544317126,-5.5449370625870884,-161.41364567196939
22.695276919437578,0.1599495422610222,-5.4532585818845556,-161.31077020824827
22.710961246315936,0.15992824388015611,-5.5135382089421983,-161.48047626723866
22.72665641237068,0.15731888171329494,-5.6376706908704799,-161.66036969383376
22.74236242509258,0.15923611858354864,-5.5466664512620447,-161.10323444896039
22.758079291977594,0.15767514117905523,-5.1020699117828761,-161.90014662623383
22.773807020526846,0.15949841590062513,-5.6011036534984928,-162.20006913386612
22.789545618246649,0.16031840874515782,-5.1469509828328253,-161.4647998126577
22.80529509264851,0.15729073000840479,-5.5703567301538479,-161.79447383383661
22.821055451249148,0.15940786589871619,-5.4513403582892703,-162.30166127103442
22.836826701570374,0.1583695422682454,-5.4560022110079007,-161.66037383669314
22.852608851139347,0.15843862147952098,-5.3874934330858837,-161.73179251261075
22.868401907488362,0.15896191247657498,-5.4570003802897826,-161.67270543649229
22.884205878154852,0.16080324913613928,-5.6095144754918858,-161.68860759615157
22.900020770681532,0.15946673246026524,-5.6499413865259793,-162.05810182740484
22.915846592616379,0.15815209548694464,-5.418510334272451,-161.5927127318337
22.931683351512461,0.15936602795335542,-5.5699724339630761,-162.12726622885293
22.947531054928152,0.15915598780482046,-5.6352006869657814,-161.97058204636386
22.963389710427016,0.15700574890839658,-5.6539380906674879,-162.26659984921912
22.979259325577868,0.15973274480058386,-5.0596681747571592,-162.30526140504958
22.995139907954734,0.15793418171869372,-5.497049116381616,-161.8820452731529
23.011031465136885,0.15840084781163144,-5.0546557403289318,-162.09775573630253
23.026934004708824,0.15898974562065737,-5.1753240953027726,-162.1961367634901
23.042847534260293,0.15737092985876278,-5.2079981199336531,-161.8209807483567
23.058772061386289,0.15881334560095833,-5.4723664927351825,-162.32225413095802
23.074707593687066,0.15749448423535228,-5.3896599520916899,-162.5242324141181
23.090654138768059,0.15932151231285521,-5.1325886665629259,-162.08675710209528
23.10661170424008,0.15996274842271446,-5.6461225669108952,-162.55880128669949
23.122580297719139,0.16029271925310504,-5.5349907677026966,-162.11562573112187
23.138559926826456,0.15810310893517196,-5.3221825259682563,-162.13693813795027
23.154550599188578,0.15416463314052598,-5.5241686027096755,-162.171129273714
23.170552322437377,0.16099000657153612,-5.4216092138429062,-161.41022916172705
23.186565104209873,0.15946920719278612,-5.3281371174320729,-162.17243760159909
23.202588952148439,0.15675729228614316,-5.6212738270514615,-162.05734950960004
23.218623873900729,0.15864879543230864,-5.6607934994644378,-162.54702492058854
23.234669877119661,0.16031295455796904,-5.3357791235435741,-162.19505035949658
23.250726969463461,0.15968462134267172,-5.3966511829619623,-162.03877839942925
23.266795158595635,0.15642667018835266,-5.2986326749632893,-161.35701376298158
23.282874452184984,0.16001208791793892,-5.359268079025119,-161.96761741865953
23.298964857905617,0.15857455220490371,-5.3370042723696853,-162.38514118912758
23.315066383436939,0.16058195302057393,-5.5225400456873039,-162.17806634932296
23.331179036463674,0.15839407633338703,-5.2151129451016276,-162.39145363176453
23.347302824675836,0.1596785199098931,-5.3994141667796827,-162.6357149050225
23.363437755768771,0.15965945292684564,-5.5267186536118285,-162.73831041081957
23.379583837443164,0.15863131542206266,-5.6502913505296597,-162.15910305215053
23.395741077404949,0.1599792188922749,-5.4823045403716186,-162.00858407366604
23.411909483365424,0.15983829499242563,-5.4354187091417474,-162.11311173170725
23.428089063041309,0.15995901535983556,-5.4197456072044128,-162.9245704930934
23.444279824154485,0.15773918983891305,-5.4215474857266823,-162.88412656703329
23.460481774432267,0.15984511531036905,-5.5502374132272072,-162.83111309910882
23.476694921607368,0.15820451993537887,-5.5277970234501037,-162.50084659942598
23.492919273417705,0.16179143405411059,-5.7634229414642526,-161.63481775254411
23.509154837606641,0.16015596148208727,-5.0310313364984927,-161.95310825903658
23.525401621922857,0.16085909976480667,-5.4361694259619595,-162.59090922474348
23.541659634120407,0.15854693044274365,-5.1932380446632544,-161.82800121640946
23.557928881958681,0.16044263116343743,-5.3872100914300418,-161.72011512359711
23.57420937320245,0.15798521923719236,-5.3019327895496415,-162.51284199710062
23.590501115621837,0.15842387404508954,-5.1684002627581291,-163.49923991216372
23.60680411699235,0.16107507459762826,-5.4448242182894298,-162.47205886431016
23.623118385094855,0.15887940822456106,-5.5621799033270722,-162.62124014627636
23.639443927715629,0.16178770190412811,-5.3346163377990852,-163.37414211861869
23.655780752646226,0.15887353491012471,-5.3889444528513817,-162.66351180317375
23.67212886768375,0.15878393739720037,-5.350713167390083,-162.00094081453156
23.688488280630583,0.16059967227588373,-5.5078101366491241,-161.6332364149184
23.704858999294494,0.15888845309599869,-5.5868718621546698,-162.86022079266661
23.721241031488663,0.15646450948617158,-5.0477195159785593,-162.91140919114463
23.737634385031757,0.15431018218482673,-5.6573172163435057,-162.97673555694945
23.754039067747698,0.15534562655751558,-5.3457383941902012,-161.66877526398702
23.770455087465916,0.15666719180189911,-4.9906433386388844,-162.75546823726151
