#Digilent WaveForms Network Analyzer - Bode
#Device Name: Discovery2
#Serial Number: SN:210321A18F9B
#Date Time: 2017-05-23 11:46::50.775

Frequency (Hz),Channel 1 Magnitude (dB),Channel 2 Magnitude (dB),Channel 2 Phase (°)
20.000000000000021,0.1602709209979816,-14.838537954779859,-167.18758672288598
20.013821666009239,0.16133701831719205,-14.842254829699073,-167.16111377836924
20.02765288394102,0.15958286640990277,-14.852406888193562,-167.2593534103919
20.04149366039654,0.16165581347190072,-14.84449628988294,-167.23561340895526
20.055344001981531,0.16048878603940001,-14.824054225096248,-167.29878662424952
20.0692039153063,0.16083883447317349,-14.841501400811719,-167.31637495968525
20.083073406985712,0.16056643032581858,-14.836714123087981,-167.39354438416385
20.09695248363921,0.16134714264737046,-14.834132917576895,-167.29553297044066
20.11084115189081,0.16303402435016265,-14.835790402804037,-167.31857294452604
20.124739418369124,0.16303319857884788,-14.844235008718439,-167.30672584442965
20.138647289707265,0.16402354709471839,-14.82906017985397,-167.38289033627873
20.152564772543055,0.16095859616426955,-14.823917923368002,-167.41458410980354
20.166491873518837,0.16143115738279226,-14.819539928508622,-167.34476623621146
20.180428599281505,0.16242516199859713,-14.819503014917226,-167.5154915371966
20.194374956482591,0.1590571127332413,-14.824726154503807,-167.44408587465392
20.208330951778283,0.16022706009031168,-14.839129487533482,-167.42686260703312
20.222296591829245,0.16021981905040988,-14.821327858510147,-167.45572310738541
20.236271883300827,0.15802148874316019,-14.824449649645564,-167.42152783018932
20.250256832862963,0.16111236565651688,-14.822926338237796,-167.47888461455213
20.264251447190198,0.16143648655288192,-14.825236161316635,-167.47369048998945
20.278255732961693,0.15924642110818149,-14.818146906339297,-167.48559720523116
20.292269696861215,0.16041349033399821,-14.81947201090618,-167.60229495590494
20.306293345577167,0.16405091883037762,-14.829891650666733,-167.60397063852616
20.320326685802556,0.16323913784865904,-14.802557514564068,-167.61291415088064
20.334369724235025,0.1627425443132558,-14.821952512365117,-167.75377808972115
20.34842246757686,0.15880378615051785,-14.809730059145458,-167.7201342061513
20.362484922534907,0.16177016678079223,-14.808382375452249,-167.61648376972963
20.376557095820758,0.15976852140861295,-14.830198920233579,-167.68060432991652
20.390638994150589,0.16212110545528016,-14.810367099361654,-167.70070812708207
20.404730624245172,0.15947184521772539,-14.812227011744772,-167.84714899672656
20.418831992829968,0.16167846343645212,-14.811306016690908,-167.67447499113669
20.43294310663515,0.15984506897301354,-14.815181451666511,-167.72075406913152
20.447063972395416,0.16232395186973525,-14.814872306276957,-167.88174568963555
20.461194596850191,0.16074980379628803,-14.805221272828126,-167.8380077157972
20.475334986743555,0.16118972697283709,-14.818969478886935,-167.82343445083143
20.489485148824237,0.15989909007146849,-14.804168141876247,-167.83347194554005
20.50364508984563,0.16024365065046409,-14.796499486340227,-167.89744081341578
20.517814816565799,0.16150898648564571,-14.810403319312737,-167.91837799452767
20.531994335747481,0.1628514272000989,-14.830179679650087,-167.86717402162131
20.546183654158071,0.16297149698554417,-14.810676178930986,-167.88865370448767
20.560382778569661,0.16341153641035411,-14.818065504857703,-168.00770537364292
20.574591715759038,0.16014898238694569,-14.803106108967288,-167.98366326070814
20.588810472507578,0.16024535594093198,-14.805039567112726,-167.95585929429257
20.603039055601485,0.16512190708738683,-14.810185849160538,-167.94625487203589
20.617277471831574,0.16134055370446859,-14.810993596845138,-167.99970718248582
20.631525727993328,0.16074516644096051,-14.811540495367787,-167.9817290971404
20.645783830886948,0.16230287931789444,-14.811316509444644,-168.07278903640378
20.660051787317421,0.16033353462985334,-14.793250203430695,-168.07845215015084
20.674329604094297,0.16081759738072982,-14.810722776729319,-168.09969292162873
20.68861728803191,0.16000828204533707,-14.793160892181014,-168.07867033478655
20.702914845949294,0.15980917054526575,-14.800616231087329,-168.03052511656642
20.717222284670193,0.16114131271651921,-14.811511686163685,-168.07646157631194
20.731539611023067,0.16041532230972338,-14.802189739620385,-168.04496118786579
20.745866831841088,0.16409159173106605,-14.804526538344016,-168.19233492642795
20.760203953962158,0.16305886424405153,-14.793620552876536,-168.25207283032015
20.774550984228906,0.16394358327471553,-14.789921682098013,-168.20551571419387
20.78890792948868,0.15989969445890256,-14.78776012558891,-168.34623720180434
20.803274796593591,0.16122891069178122,-14.80707091792109,-168.37417126488984
20.817651592400392,0.16174369730017621,-14.796385209656627,-168.23183974000122
20.832038323770714,0.161676387891527,-14.804295021215335,-168.26979020941559
20.846434997570853,0.16238976403564798,-14.791399514330255,-168.26613621912335
20.86084162067182,0.16147560430508776,-14.80285838585251,-168.32483885287181
20.875258199949403,0.16434684507426509,-14.796482298621175,-168.28360496371982
20.889684742284217,0.16162040591175952,-14.777872868686048,-168.33864791438495
20.904121254561506,0.16211180858237906,-14.791487879743077,-168.4235318437818
20.918567743671343,0.16151364818379738,-14.7848915267428,-168.32887509231941
20.933024216508553,0.16381126046998246,-14.80145822029483,-168.35905244465471
20.947490679972727,0.16161200596412931,-14.798968613581865,-168.34910605029194
20.961967140968213,0.16298962134440376,-14.800142052227427,-168.56083182922023
20.976453606404149,0.16234276475810172,-14.778294042134926,-168.51782103814594
20.990950083194427,0.16372761824106838,-14.767327942863666,-168.43737298053082
21.005456578257732,0.16071739489522283,-14.784549189489159,-168.51361031023487
21.019973098517521,0.16458169210834395,-14.796674321323167,-168.55814924271914
21.034499650902067,0.16102988987858627,-14.805666458056352,-168.48625430768365
21.049036242344336,0.16278067785474687,-14.777904065455649,-168.50598804371177
21.063582879782217,0.16142475158767769,-14.79822953636994,-168.56751301105598
21.078139570158328,0.15984365535940159,-14.771227807084594,-168.63731537540372
21.092706320420028,0.1613521685782584,-14.783031572794599,-168.6535630663758
21.107283137519595,0.16346320456207636,-14.773036568754833,-168.60430272454914
21.121870028414058,0.16231414764405994,-14.77851124673213,-168.63838504953245
21.136467000065199,0.16077713141461392,-14.777723402232086,-168.63284714134778
21.151074059439665,0.16404649506823943,-14.777445334053105,-168.64532504631617
21.165691213508975,0.16314688186854345,-14.793877566969307,-168.81265160488232
21.180318469249347,0.16666111560971644,-14.798560672841868,-168.68525498915918
21.194955833641888,0.15844608811005839,-14.802014058956086,-168.7652642873922
21.209603313672524,0.15959205127220213,-14.768228784751855,-168.82299091795721
21.224260916332003,0.16198329979132867,-14.775276935398743,-168.80041318798303
21.238928648615904,0.1629976745194503,-14.773931542152907,-168.72173646889684
21.253606517524641,0.16364966527510375,-14.774824424103887,-168.89165729429473
21.268294530063471,0.16067473825895673,-14.779801895764921,-168.83482928108114
21.282992693242484,0.16063482138792687,-14.761431355228659,-168.88112748525597
21.297701014076612,0.16160693834537504,-14.783807014633041,-168.82691645494276
21.312419499585673,0.16069453854127497,-14.777822492803205,-168.82405470075699
21.327148156794234,0.1598551619916232,-14.783110418225142,-168.76390886443329
21.341886992731848,0.16117015317100919,-14.771676412887819,-168.92711606923194
21.356636014432869,0.16048905456541857,-14.768749441337743,-168.88695628746089
21.371395228936468,0.16102548562010188,-14.769891873538224,-168.99984038565125
21.386164643286712,0.16205684388456612,-14.772350058995595,-168.91416508915722
21.400944264532619,0.16244379714560764,-14.789267062779619,-168.88277838172942
21.415734099727931,0.16115098496830438,-14.781791172893117,-169.03015603298769
21.430534155931365,0.1621561777579664,-14.784390425520614,-169.09215704761854
21.445344440206483,0.15936271166476312,-14.767697390979158,-168.94559027726996
21.460164959621743,0.16476781232129062,-14.767370339760946,-169.01318518878216
21.474995721250476,0.16341722505818682,-14.76404709463538,-169.07301641956343
21.4898367321709,0.16140841648064364,-14.768004756476502,-168.9105080732372
21.504687999466132,0.15898450746896237,-14.75635591035692,-168.99019738100012
21.519549530224186,0.16132519297801867,-14.765908935894835,-169.20889026919363
21.534421331537967,0.16238876039691413,-14.780284502910554,-169.16508745539403
21.549303410505306,0.16092023875009004,-14.759760449574584,-169.16630574041764
21.56419577422885,0.1634171908070931,-14.761049350832131,-169.15925412733696
21.579098429816284,0.16433618095147592,-14.760694033408754,-169.23497411089861
21.594011384380153,0.16321533496911739,-14.758064172027382,-169.25270095759905
21.608934645037863,0.16126373548308326,-14.764270890731243,-169.23945822635329
21.623868218911781,0.16039310894727099,-14.764015390684692,-169.27747365286098
21.638812113129259,0.15875257661158063,-14.743480491800099,-169.23415631454623
21.65376633482245,0.15933538124517529,-14.755418063465676,-169.24026494073019
21.668730891128529,0.16191473855621338,-14.76315842556377,-169.28233417601984
21.683705789189574,0.1610397236944538,-14.742155438832725,-169.32624107342727
21.698691036152589,0.16239767405690717,-14.771612422410536,-169.38900342784461
21.713686639169534,0.15907079613621702,-14.749762376649226,-169.28011987933701
21.728692605397303,0.16342570883088975,-14.760305357612541,-169.26695159488767
21.743708941997742,0.16126030235283478,-14.761611962953927,-169.42920180034147
21.758735656137638,0.16319055139454114,-14.751518784146016,-169.41271749750888
21.773772754988741,0.15938031040149001,-14.730273957751152,-169.34305669404421
21.788820245727766,0.15828330835658214,-14.74658443336592,-169.38010007514373
21.803878135536308,0.16489304485381906,-14.757070910604835,-169.4515664882947
21.818946431601059,0.15910321012637837,-14.754167252527797,-169.42655338120866
21.834025141113617,0.16320804179752019,-14.754998147618551,-169.51739866765951
21.84911427127048,0.16187500686089801,-14.745885596844563,-169.53202643508891
21.864213829273197,0.16146444769111787,-14.742458123448632,-169.55673949837069
21.879323822328335,0.16583035844519273,-14.745339474651765,-169.54351162157499
21.894444257647326,0.16395142830984016,-14.746974665973125,-169.59053938324763
21.909575142446656,0.16014335250446454,-14.743734285565708,-169.61920365836596
21.924716483947794,0.16241678248808925,-14.746413029326629,-169.63172162399911
21.939868289377191,0.1607081666753532,-14.744795344527912,-169.57206200146624
21.95503056596629,0.16440018818500032,-14.747278549507321,-169.68891750291814
21.970203320951541,0.15969402796873278,-14.741011622248392,-169.6082594561305
21.985386561574376,0.1630315769399335,-14.736766940723092,-169.61139024991351
22.00058029508126,0.16190829989957436,-14.748715338776336,-169.6626841888536
22.015784528723639,0.16152652693689051,-14.744250011342041,-169.67370736691632
22.030999269758009,0.15914490572428594,-14.744207547998611,-169.68001816119829
22.04622452544578,0.16382586516439993,-14.750292801413231,-169.65150250533554
22.061460303053529,0.16024465411036332,-14.747293999157273,-169.75205785455887
22.076706609852774,0.15772519774930854,-14.749116700698846,-169.74434381841368
22.091963453120016,0.16088642718395785,-14.738666548207739,-169.8175784967226
22.10723084013684,0.15911147510559737,-14.739093150983173,-169.76007517201276
22.122508778189914,0.15981311089179601,-14.743281187794892,-169.74307773280171
22.137797274570818,0.16352477112313574,-14.748247003228645,-169.84004663370112
22.153096336576262,0.16383275608334169,-14.730926986748049,-169.75886063823526
22.168405971507973,0.16251013732095518,-14.732422657580184,-169.91420418659044
22.183726186672722,0.16220494968797158,-14.742494483323032,-169.86200472725778
22.199056989382328,0.16170499081871198,-14.734032252154707,-169.97830818794455
22.214398386953672,0.16132080698701701,-14.739220935501185,-169.89160515897194
22.22975038670868,0.16088835929911879,-14.742080370971511,-169.96842083470392
22.245112995974349,0.16311349126822697,-14.746997880319652,-169.96729404451247
22.260486222082733,0.16366811101633291,-14.740668176687324,-169.99986382565746
22.27587007237095,0.15878552917200778,-14.723710671014874,-170.02221456460191
22.291264554181204,0.1612926684555045,-14.713784117386711,-169.98099315727791
22.306669674860757,0.16153591798002742,-14.723922313670785,-169.98757783061819
22.322085441761971,0.15963987655185402,-14.729563696660113,-170.06482911007933
22.337511862242213,0.16316419083629807,-14.716464622347951,-170.09592924563785
22.352948943664057,0.16281564643355312,-14.722228744092682,-170.06946989981518
22.368396693395102,0.16119081105765876,-14.723046149420245,-170.20214971752094
22.38385511880799,0.15991025496497141,-14.723178056267939,-170.04688845918619
22.399324227280509,0.16253136712820582,-14.735063471427083,-170.28369025586863
22.414804026195615,0.16209087111436735,-14.72721244670424,-170.12878383389199
22.430294522941224,0.15929122881167068,-14.733116779445954,-170.07874376787271
22.44579572491045,0.16234792013400975,-14.712073736479887,-170.24040190110398
22.461307639501491,0.16076170923343541,-14.742398784396386,-170.17097140981062
22.476830274117663,0.1628102016323873,-14.735560172867203,-170.14675072189405
22.492363636167404,0.16378138926331798,-14.71706111545657,-170.16750546070912
22.507907733064254,0.1594193383291356,-14.740442145774519,-170.24728108970012
22.523462572226887,0.16303706971926427,-14.724255816392141,-170.16019293205412
22.539028161079109,0.16041558424351701,-14.709723427185807,-170.43829792846606
22.554604507049849,0.15933379119072891,-14.709437050937952,-170.21030907915809
22.570191617573194,0.16294608520907233,-14.714932540659923,-170.42043118842651
22.585789500088278,0.16167896443853308,-14.727764133860292,-170.41181448803002
22.601398162039516,0.16211420618804651,-14.71759255547504,-170.38249302398521
22.617017610876392,0.1598603986831473,-14.715070063069021,-170.21236283210925
22.632647854053499,0.16283006047625409,-14.715646093297273,-170.32755039841922
22.648288899030621,0.15838293326413155,-14.727173037060332,-170.39684605177357
22.663940753272779,0.16064466231565666,-14.722279052514411,-170.39459138946202
22.679603424250001,0.16195446720920226,-14.726591228343274,-170.44036738013745
22.695276919437578,0.16143984415192369,-14.715608512721731,-170.40402962004305
22.710961246315936,0.15910249933944209,-14.710454085082434,-170.45674183086675
22.72665641237068,0.16019742999025405,-14.729388479712055,-170.44616123671722
22.74236242509258,0.16327502706708691,-14.722008844504549,-170.55917334351369
22.758079291977594,0.16224164673090127,-14.716956720218992,-170.59663796107364
22.773807020526846,0.16122793513785394,-14.712835959028563,-170.60439645205187
22.789545618246649,0.16178006685558941,-14.721582382003886,-170.57195160113352
22.80529509264851,0.15924315025487426,-14.714213416412598,-170.59237822834103
22.821055451249148,0.16053789811156624,-14.707221038485184,-170.60446599390821
22.836826701570374,0.15965797976873,-14.70743361084695,-170.54498456184348
22.852608851139347,0.15816585233243213,-14.709356897379342,-170.60750809788107
22.868401907488362,0.16017601976857959,-14.702044351499017,-170.68165652815011
22.884205878154852,0.16007650744202895,-14.718186410322918,-170.69293991947853
22.900020770681532,0.15999748074657194,-14.706718997172825,-170.68169000875116
22.915846592616379,0.15737566260754154,-14.702763742724233,-170.57550258087821
22.931683351512461,0.16212859506248672,-14.707870710344977,-170.68071845531307
22.947531054928152,0.16114147482646557,-14.703996317112251,-170.75910006153174
22.963389710427016,0.16116399908746565,-14.701799829107369,-170.76169427750648
22.979259325577868,0.16105307467717336,-14.712170436472814,-170.77479422894817
22.995139907954734,0.15971364644656461,-14.702882211213947,-170.79563131860979
23.011031465136885,0.15858899170533702,-14.714526762798767,-170.70498564508378
23.026934004708824,0.16204252466180369,-14.699641155379663,-170.8035505116608
23.042847534260293,0.15726753552251077,-14.704376642311152,-170.906431947069
23.058772061386289,0.15938077410850429,-14.704459022037728,-170.89317316488567
23.074707593687066,0.16368019656689758,-14.719288871141035,-170.754851570082
23.090654138768059,0.16179143522848136,-14.710690034935743,-170.93386586852546
23.10661170424008,0.16379965330852281,-14.710599898461361,-170.99346609818971
23.122580297719139,0.16159160360138025,-14.691949497663613,-170.89440186788045
23.138559926826456,0.16154054705958576,-14.690652469759311,-170.85875517264026
23.154550599188578,0.16165639392649178,-14.696914674399206,-170.93977432619513
23.170552322437377,0.16227272081616476,-14.697144039462284,-170.95483206245427
23.186565104209873,0.15905280732498006,-14.69455121264917,-171.01362661303764
23.202588952148439,0.1601760524204412,-14.688091623819714,-171.02525580832696
23.218623873900729,0.15934592308489412,-14.701701110901864,-171.06907712362232
23.234669877119661,0.16094081077926664,-14.681511682424397,-171.11259545092395
23.250726969463461,0.16571425081417648,-14.698395550718178,-171.07594709075636
23.266795158595635,0.16086278751599214,-14.712393779210755,-170.9627204911817
23.282874452184984,0.15993755966956072,-14.681167903620446,-171.03407825343524
23.298964857905617,0.16242009345297678,-14.686631349543005,-171.22487197718485
23.315066383436939,0.16113545615979419,-14.673877500591795,-171.21534652286226
23.331179036463674,0.1595879023532579,-14.697107637418455,-171.17698630235171
23.347302824675836,0.15984036515141301,-14.69996940170657,-171.15192599840861
23.363437755768771,0.16332743232861505,-14.681161986627592,-171.2340600502481
23.379583837443164,0.15821623824693343,-14.678691767874085,-171.21263344266919
23.395741077404949,0.16389916265964638,-14.707408623622539,-171.23454035803118
23.411909483365424,0.16052993087246614,-14.697243262866312,-171.23627863978308
23.428089063041309,0.16086895946092183,-14.685462636041571,-171.27663753885162
23.444279824154485,0.1576906302636982,-14.678153881249013,-171.25986104063549
23.460481774432267,0.16078588367962901,-14.687632891355838,-171.30456124560374
23.476694921607368,0.16015206645897101,-14.680273762126577,-171.26424224774422
23.492919273417705,0.15900845544115355,-14.682977855805618,-171.33369800568772
23.509154837606641,0.16049660012834355,-14.682584055093006,-171.42210966582246
23.525401621922857,0.16196132102721358,-14.695337896088251,-171.34207050143004
23.541659634120407,0.16035048341712776,-14.678359423961414,-171.42732991408474
23.557928881958681,0.16303656007186904,-14.690557549376827,-171.39253560705464
23.57420937320245,0.16173898975012707,-14.688686914729148,-171.42354287631554
23.590501115621837,0.16170853578723265,-14.668940408690132,-171.4366418209307
23.60680411699235,0.16074118254347639,-14.686375348567866,-171.42776960934057
23.623118385094855,0.15948754268340029,-14.684308088510111,-171.46353856524689
23.639443927715629,0.16317589088081677,-14.69260416337873,-171.48695447910714
23.655780752646226,0.15790961334909734,-14.680702826262051,-171.4186400186972
23.67212886768375,0.1604817457350845,-14.675800940363395,-171.51000267069682
23.688488280630583,0.16331437796536313,-14.68482577019908,-171.47543045370094
23.704858999294494,0.16178232289921701,-14.690274707144503,-171.54455560116514
23.721241031488663,0.16082318616556682,-14.69353988081574,-171.55510482329754
23.737634385031757,0.15998076395006772,-14.697530225904069,-171.53992975588724
23.754039067747698,0.16042092556764248,-14.684979934987876,-171.64479949513037
23.770455087465916,0.1590925097209753,-14.664649366165552,-171.59510428828105
