#Digilent WaveForms Network Analyzer - Bode
#Device Name: Discovery2
#Serial Number: SN:210321A18F9B
#Date Time: 2017-05-23 13:10::19.661

Frequency (Hz),Channel 1 Magnitude (dB),Channel 2 Magnitude (dB),Channel 2 Phase (°)
20.000000000000021,0.17059607187525774,-12.647913876796736,-157.06459435384886
20.013821666009239,0.16960238690013338,-12.707672175966092,-156.38350644875413
20.02765288394102,0.17159844618506009,-12.647105370151856,-157.21917298857426
20.04149366039654,0.17225306813423044,-12.924522231980216,-153.72931397850385
20.055344001981531,0.16875473566669119,-12.725837574677508,-156.43843060662303
20.0692039153063,0.17113364757853,-12.691657576773512,-156.85248134018715
20.083073406985712,0.16982376738500854,-12.752630644173568,-155.62962930487743
20.09695248363921,0.17045830778111332,-12.69101468921032,-156.79033531312774
20.11084115189081,0.17221584467798826,-12.672252946570669,-157.11608919980426
20.124739418369124,0.1705041471248189,-12.662126691853341,-157.13501658041844
20.138647289707265,0.17188502839081932,-12.670619708804381,-157.32348568004838
20.152564772543055,0.17054221562539551,-12.692654080624713,-157.03859408895798
20.166491873518837,0.17281813942109664,-12.657441902785786,-157.42337875000388
20.180428599281505,0.16805827324055089,-12.743195388252001,-156.38176455256666
20.194374956482591,0.16991210420644237,-12.667759430486337,-157.3175468356157
20.208330951778283,0.17247982300706857,-12.680873144873521,-157.35164725087517
20.222296591829245,0.17113369791263733,-12.630538873637569,-157.78363686252453
20.236271883300827,0.17139304871103325,-12.670515779873735,-157.56284064257994
20.250256832862963,0.16930229919250012,-12.692004525739968,-157.17742929187511
20.264251447190198,0.17007898204909161,-12.677762951351454,-157.29382321238398
20.278255732961693,0.16880383033596288,-12.634420921322697,-158.12129119224096
20.292269696861215,0.17053714125492334,-12.664199654497805,-157.45375515081631
20.306293345577167,0.17190680025329991,-12.622861409089982,-158.03300600215724
20.320326685802556,0.17291894829221538,-12.677174165218796,-157.40074694909509
20.334369724235025,0.17064844601374321,-12.635719222223848,-158.09251770597223
20.34842246757686,0.17032778581389074,-12.838139567095084,-155.10064693723106
20.362484922534907,0.17230268982164385,-12.638772304548558,-158.1046521286637
20.376557095820758,0.17092538984865546,-12.652984229386471,-157.89792808510228
20.390638994150589,0.17092763258752347,-12.642468267450692,-158.11111988075618
20.404730624245172,0.17220241793088953,-12.661878195386503,-158.16344164966182
20.418831992829968,0.17012054013451269,-12.630046274012102,-158.21393813248014
20.43294310663515,0.17491881376786342,-12.651936823613585,-158.19352094097243
20.447063972395416,0.17279433793283794,-12.636200254931678,-158.30039417810642
20.461194596850191,0.17288821809973431,-12.6021488607309,-158.72197715626197
20.475334986743555,0.1703420502902471,-12.643888002023054,-158.35043133153738
20.489485148824237,0.17203647656064566,-12.621164358486487,-158.70873484987985
20.50364508984563,0.17068504084167835,-12.635932074244874,-158.51733607876795
20.517814816565799,0.17220615361926767,-12.605836158435483,-158.99813793844314
20.531994335747481,0.17040013149214067,-12.630809629611203,-158.54402203306054
20.546183654158071,0.17245773999399169,-12.602382623749655,-158.78350030654835
20.560382778569661,0.17154501445935944,-12.65364298736557,-158.38829491221153
20.574591715759038,0.17025902095706782,-12.652055265710043,-158.419209929749
20.588810472507578,0.17366265911676415,-12.615746352689797,-158.82119104315606
20.603039055601485,0.17468826167862767,-12.622751878845168,-159.17450984152154
20.617277471831574,0.17147207798309974,-12.589076746558064,-159.46977128856599
20.631525727993328,0.17203534746327523,-12.637833994675489,-158.97896256417141
20.645783830886948,0.1718941296692407,-12.599944859196345,-159.40891372740586
20.660051787317421,0.17135896105391446,-12.608675592472379,-159.21986001156114
20.674329604094297,0.17363313833585345,-12.618637266549598,-159.25922759521902
20.68861728803191,0.16910009431367998,-12.611387517204404,-159.15378532566092
20.702914845949294,0.17071389424051486,-12.601745283531917,-159.43504878229038
20.717222284670193,0.16771161192063486,-12.797096108433724,-156.33486027626549
20.731539611023067,0.17187998310419872,-12.649421685605756,-158.81494956728693
20.745866831841088,0.1712829463828916,-12.566627475344132,-159.97852378977348
20.760203953962158,0.17084730683959815,-12.583550355794515,-159.82699451682157
20.774550984228906,0.17180691119817865,-12.617013466936909,-159.35216509562193
20.78890792948868,0.17192157202056285,-12.643459056588613,-159.01459930825661
20.803274796593591,0.17095274430681423,-12.570671270969422,-159.91732509395047
20.817651592400392,0.17179902579978604,-12.622864179748179,-159.44307763520357
20.832038323770714,0.17005676980478665,-12.588386111120291,-160.04789945803185
20.846434997570853,0.17123088339729242,-12.584503824588289,-159.77580110081703
20.86084162067182,0.17231507648260541,-12.63447090290423,-159.29752186104048
20.875258199949403,0.17086628075894492,-12.627762620422097,-159.42203848485866
20.889684742284217,0.17073616025177463,-12.576497013394061,-160.0677436563642
20.904121254561506,0.17384721923599078,-12.605243329957066,-159.91455082379707
20.918567743671343,0.1697261416265593,-12.606002886917054,-160.07622923373506
20.933024216508553,0.16985594827166739,-12.594546468673141,-160.05137355935955
20.947490679972727,0.16928431776530029,-12.60452684709977,-159.82005908303873
20.961967140968213,0.17154688763025075,-12.579435688417149,-160.20652569257939
20.976453606404149,0.1705427339228405,-12.577766852607219,-160.40273692710824
20.990950083194427,0.17013887480648038,-12.611792942866993,-159.89287548399886
21.005456578257732,0.17237293524508457,-12.569809298182019,-160.43853763331893
21.019973098517521,0.17257099308520399,-12.568422039541803,-160.60923795412361
21.034499650902067,0.17229320446632088,-12.544662794765065,-161.02339705305616
21.049036242344336,0.1713054749786827,-12.58153281624304,-160.42846861322553
21.063582879782217,0.17391289617375569,-12.585154548417206,-160.3880682339661
21.078139570158328,0.1723735269848696,-12.622339251275395,-159.97053189656492
21.092706320420028,0.1703532154723339,-12.565892855814482,-160.63375759637867
21.107283137519595,0.17347587297064282,-12.588294594858843,-160.70077685752645
21.121870028414058,0.17175485085950754,-12.607668674644202,-160.27599877841718
21.136467000065199,0.17218034428027554,-12.549495185792651,-161.06160920089556
21.151074059439665,0.17186361583176923,-12.56660089465495,-160.94390819954469
21.165691213508975,0.17234152417680834,-12.596871578035909,-160.83815544526229
21.180318469249347,0.17113005524517383,-12.594872252692843,-161.02283896689775
21.194955833641888,0.16969999359941629,-12.564792690889137,-161.25510780564284
21.209603313672524,0.16880806077682411,-12.546644262318882,-160.78786666882252
21.224260916332003,0.17099358593616837,-12.556431786707298,-161.14345868762868
21.238928648615904,0.17238635449622311,-12.541144109145241,-161.4491383209126
21.253606517524641,0.17383543853782144,-12.55873250348105,-161.40024262442091
21.268294530063471,0.17196373626412437,-12.565378844175395,-161.41162791682569
21.282992693242484,0.17288792056990968,-12.549542184446285,-161.690166065732
21.297701014076612,0.17289752373678174,-12.590977573576074,-161.06859771245723
21.312419499585673,0.1725975436919136,-12.568578905964449,-161.23463666530287
21.327148156794234,0.16909840648814495,-12.532134359395439,-161.77120263614853
21.341886992731848,0.16804763121610802,-12.57478178417202,-161.26716910260453
21.356636014432869,0.17019909580659912,-14.705073635461019,-168.01436566415398
21.371395228936468,0.16876284597300742,-12.529886858128219,-162.0123714246462
21.386164643286712,0.17234241617611501,-12.52743089100942,-161.99556577230868
21.400944264532619,0.17115400136021652,-12.551708711002856,-161.69022017503923
21.415734099727931,0.17115162436575426,-12.571184798019395,-161.29596238660707
21.430534155931365,0.1709478843564739,-12.543946777070222,-162.02140297008398
21.445344440206483,0.17265858708909171,-12.566442895983128,-161.89304327456392
21.460164959621743,0.17136320392755705,-12.525940705777412,-162.2916529591935
21.474995721250476,0.17448966113427683,-12.67935770375615,-159.18974073766822
21.4898367321709,0.1745293213688508,-12.57900775014069,-161.60851103517882
21.504687999466132,0.17372539862719072,-12.556957733542408,-161.83744563167065
21.519549530224186,0.17276969106240669,-12.556653950866338,-161.88954646989072
21.534421331537967,0.17129967521038664,-12.574404498768178,-161.74165037074573
21.549303410505306,0.17062197736565754,-12.552402354609292,-162.08803667200527
21.56419577422885,0.1716926524716347,-12.557974536777028,-162.17690807633639
21.579098429816284,0.17267300218310935,-12.53397227951179,-162.63487649861148
21.594011384380153,0.17425886725200027,-12.536663089184776,-162.17557842542493
21.608934645037863,0.17430588449447684,-12.542486322028662,-162.22029946156934
21.623868218911781,0.17028439113474125,-12.527345569113139,-162.4569343626805
21.638812113129259,0.17241144674005709,-12.54609649386512,-162.68664827466461
21.65376633482245,0.17253416753670506,-12.565409229237209,-162.15285761023011
21.668730891128529,0.17213310801188178,-12.584401258815014,-161.99732576109551
21.683705789189574,0.16890268685568949,-12.54749810006304,-162.60953234513599
21.698691036152589,0.17323996577029571,-12.55926019890612,-162.30725465419113
21.713686639169534,0.17399057869450835,-12.540751097491494,-162.92310932187689
21.728692605397303,0.16908830172171407,-12.568600861392509,-162.28012430709418
21.743708941997742,0.17112594496874239,-12.544351618952071,-162.58744370094595
21.758735656137638,0.16858258070193866,-12.559185850887452,-162.52646817189043
21.773772754988741,0.17174515751246949,-12.502730172033846,-163.60722380622045
21.788820245727766,0.16874859405515907,-12.518277535030073,-163.24560274377512
21.803878135536308,0.16913246628766754,-12.524608516263305,-163.14824094869167
21.818946431601059,0.17333338808555598,-12.542122467282422,-162.89926185427385
21.834025141113617,0.17091504989388215,-12.528154915427926,-163.5782721088068
21.84911427127048,0.17235491741498629,-12.544990344447678,-162.9741272801414
21.864213829273197,0.17204992443333555,-12.535342588077969,-163.08542488068417
21.879323822328335,0.17420553997551572,-12.543495078807874,-163.11987305196226
21.894444257647326,0.17286822467003857,-12.515374174018882,-163.68271250421759
21.909575142446656,0.17120130922771337,-12.560077582396588,-162.98917605645121
21.924716483947794,0.17332181294034765,-12.519524996319696,-163.96995925518797
21.939868289377191,0.17186962821095464,-12.534353258360301,-163.31657898601267
21.95503056596629,0.16763618134156949,-12.539841818935795,-163.07451023904028
21.970203320951541,0.17120837129988631,-12.524669923120831,-163.56501764115109
21.985386561574376,0.17082710680459867,-12.537566775315078,-163.37283136859642
22.00058029508126,0.17364425756384747,-12.543149451224323,-163.49548165762712
22.015784528723639,0.17138546844940902,-12.553124369668211,-163.09119506366847
22.030999269758009,0.16968500880701254,-12.52720807569071,-163.89158136169289
22.04622452544578,0.1749014284676598,-12.531300587177432,-164.1378837350361
22.061460303053529,0.17090630472732962,-12.522786700567947,-163.68469128552368
22.076706609852774,0.1722957777424185,-12.53586541234365,-163.89528111947772
22.091963453120016,0.17446770753413401,-12.503767666967429,-165.00543203530935
22.10723084013684,0.17087133240488211,-12.510015702147207,-164.38032217320111
22.122508778189914,0.17112994373303791,-12.530105258614,-164.09322244130078
22.137797274570818,0.1690410393942946,-12.524370995126024,-164.23588834687621
22.153096336576262,0.17396478102786339,-12.51354020518297,-164.18422800719776
22.168405971507973,0.17089258278508626,-12.53674297633339,-164.15610934065768
22.183726186672722,0.17195232544763875,-12.52609214154427,-164.21377844134696
22.199056989382328,0.17480597781533891,-12.523408183625461,-164.39899358403653
22.214398386953672,0.17166269784496352,-12.503483718593653,-164.51355565180285
22.22975038670868,0.16979714462872139,-12.493140297213678,-164.99542269234533
22.245112995974349,0.17298992828129953,-12.495940354187434,-165.06646147972555
22.260486222082733,0.17036436317862527,-12.509963786578842,-164.46538898485522
22.27587007237095,0.17441920731420657,-12.535917658992075,-164.53175823392334
22.291264554181204,0.17177543301026238,-12.498774541412747,-165.11237863353787
22.306669674860757,0.17111321454257647,-12.500623636906427,-165.14597156842459
22.322085441761971,0.17243106036064609,-12.537642060264744,-164.51426872762113
22.337511862242213,0.17155380714171467,-12.526145379350631,-164.46290950979918
22.352948943664057,0.17215494057369249,-12.525792748756979,-164.66352707930295
22.368396693395102,0.17351480989594248,-12.510528307948762,-164.79004398653495
22.38385511880799,0.17249656751342557,-12.530641858863456,-164.45486925018264
22.399324227280509,0.17179628204054445,-12.507846035169912,-165.36323699586617
22.414804026195615,0.17165966268881389,-12.506109782361996,-165.31393526798442
22.430294522941224,0.17208773715712927,-12.532358997745913,-165.06378334554185
22.44579572491045,0.17262971733503021,-12.496970210135196,-165.37169316269996
22.461307639501491,0.17075403847357046,-12.509264920391839,-165.42064697910766
22.476830274117663,0.16918767737506324,-12.518139993762333,-164.8192569430777
22.492363636167404,0.17313629351264712,-12.493471317527518,-165.67121096136384
22.507907733064254,0.16935956299820121,-12.515531748277724,-165.44719756052879
22.523462572226887,0.17174303136195718,-12.505462208362815,-165.75269889090839
22.539028161079109,0.17339919447002189,-12.522862470521321,-165.29145330845765
22.554604507049849,0.17137229910223989,-12.528769008415221,-164.85294978036404
22.570191617573194,0.17511220707731995,-12.506590432351739,-165.69750641553802
22.585789500088278,0.17154540898669943,-12.501902648616991,-165.70853984622647
22.601398162039516,0.17158743209849589,-12.508259131845653,-165.7251800474429
22.617017610876392,0.16975975426186807,-12.493212540099684,-166.19068704490519
22.632647854053499,0.17385428878671824,-12.496070941865291,-166.19961058634044
22.648288899030621,0.17169346985237011,-12.5157267487408,-166.08169486104737
22.663940753272779,0.17313811650716732,-12.511152733583991,-166.25038191665399
22.679603424250001,0.17605262162365165,-12.500512538149911,-166.04663867237275
22.695276919437578,0.17274287276655639,-12.51228181990929,-165.71742181523186
22.710961246315936,0.17116701932501507,-12.519547602574681,-165.50118567161181
22.72665641237068,0.17426555670707247,-12.523534828718994,-165.99352193246642
22.74236242509258,0.16946841115774258,-12.506871988098915,-166.00470661423137
22.758079291977594,0.17364911297509172,-12.494448458184589,-166.64979058806796
22.773807020526846,0.17203941558198846,-12.47744564830616,-167.47147518677639
22.789545618246649,0.17209965649705761,-12.493771731331169,-167.18282218706685
22.80529509264851,0.17023252902975639,-12.508109264988896,-166.93027811475883
22.821055451249148,0.17578686645275099,-12.534287651867764,-165.95839512955001
22.836826701570374,0.17227109324708662,-12.51287412978278,-166.41912484637504
22.852608851139347,0.17381563720587981,-12.511508800293505,-166.87535818015962
22.868401907488362,0.16963070595392071,-12.53219205773291,-166.08220413888387
22.884205878154852,0.17323988373966881,-12.512574218500143,-166.99040377900093
22.900020770681532,0.1749769034501712,-12.515124903558807,-166.30648803987364
22.915846592616379,0.17259001087956694,-12.508359456718917,-166.80828666233776
22.931683351512461,0.17002005539802556,-12.505325930089942,-166.85588898782848
22.947531054928152,0.17078027759224693,-12.483262543452433,-168.18162283019626
22.963389710427016,0.17066153481019891,-12.523947645988375,-166.51896781892225
22.979259325577868,0.17348613106215477,-12.511455576788528,-167.77878072828182
22.995139907954734,0.17454444508597489,-12.518289606937651,-167.05081542647741
23.011031465136885,0.1717478891073487,-12.511747169494443,-166.74349992287918
23.026934004708824,0.1734562282238577,-12.50129244133538,-167.11727344110415
23.042847534260293,0.17152946945971387,-12.505690387317109,-167.40134787465468
23.058772061386289,0.17337729342754871,-12.50108846762674,-167.73760365479478
23.074707593687066,0.172166403513796,-12.498810527517286,-167.26812487098732
23.090654138768059,0.17406382261055697,-12.495941686355243,-167.96663380679203
23.10661170424008,0.17240192556795469,-12.522484037609606,-166.7115657439154
23.122580297719139,0.17009113460775202,-14.612636376545581,-170.1693851145416
23.138559926826456,0.17223961410151892,-12.485871022240811,-168.22176808331602
23.154550599188578,0.17233790083431499,-12.509923985160814,-167.63891880175422
23.170552322437377,0.1702303312292561,-12.489821925767984,-168.44263832143281
23.186565104209873,0.17226797805214886,-12.511196270603463,-167.51371775046374
23.202588952148439,0.16835330466584369,-12.488486177302454,-167.73345231519775
23.218623873900729,0.16954392848230682,-12.503314527738221,-167.27537657038988
23.234669877119661,0.17143197488049788,-12.504604977165954,-167.54728274600581
23.250726969463461,0.17337853585481341,-12.494127451056606,-168.21861508952588
23.266795158595635,0.17325547474198488,-12.516574887352107,-168.20922533499706
23.282874452184984,0.17200359260202924,-12.491906880293655,-168.63984600434421
23.298964857905617,0.17329832728847683,-12.511862090059612,-168.10209283402298
23.315066383436939,0.1728410255662195,-12.498404582984808,-168.18414769992967
23.331179036463674,0.17520621673584769,-12.517799438690263,-168.04367599127761
23.347302824675836,0.17432135033978785,-12.500198516818591,-168.57966387496219
23.363437755768771,0.17110303559163731,-12.503928061570111,-168.61278072099248
23.379583837443164,0.17139942197158725,-12.513896573946079,-167.86791316011869
23.395741077404949,0.17329245132369431,-12.494094480416411,-168.80497744353815
23.411909483365424,0.17325624224105862,-12.532380293200802,-167.65026300672304
23.428089063041309,0.17277467306309191,-12.503809260799173,-168.59830408868419
23.444279824154485,0.1696984428621254,-12.497698603739574,-169.01350030834436
23.460481774432267,0.17000991611988198,-12.507345280269138,-169.23449285030543
23.476694921607368,0.16942811663150645,-12.50851939871203,-168.67449519323506
23.492919273417705,0.1710933087535049,-12.503663449292286,-169.14516951215882
23.509154837606641,0.1745160676767922,-12.509140289626199,-168.98179988704558
23.525401621922857,0.17246273032333914,-12.502849547304542,-169.60814940042349
23.541659634120407,0.17309299753917293,-12.507326780196301,-168.84072226498219
23.557928881958681,0.17452777498909472,-12.498700402846019,-169.15041888127431
23.57420937320245,0.1723781584701303,-12.508659655340379,-168.89175674943567
23.590501115621837,0.17241290894397188,-12.50576592010095,-169.09759961103867
23.60680411699235,0.17274000410204371,-12.501088011642851,-168.87215336302444
23.623118385094855,0.17469551764648536,-12.514446069098451,-168.952913593576
23.639443927715629,0.17573580317578114,-12.518640650191905,-169.3301816446444
23.655780752646226,0.17405886598260439,-12.511789182488064,-169.05499965778236
23.67212886768375,0.17272228052182548,-12.505960788248366,-169.45076290935606
23.688488280630583,0.17316348220766958,-12.497114167798385,-169.48379573844522
23.704858999294494,0.17123590026849433,-12.515218964023774,-168.95679795957079
23.721241031488663,0.17380799695112745,-12.519577294270611,-169.60497172013982
23.737634385031757,0.17332969532266818,-12.523110674177715,-169.50373523711139
23.754039067747698,0.17074590474588372,-12.49989299333545,-169.51515097399397
23.770455087465916,0.17186328290930486,-12.513595763487913,-169.63187087890276
