#Digilent WaveForms Network Analyzer - Bode
#Device Name: Discovery2
#Serial Number: SN:210321A18F9B
#Date Time: 2017-06-21 09:20::50.904

Frequency (Hz),Channel 1 Magnitude (dB),Channel 2 Magnitude (dB),Channel 2 Phase (°)
20.000000000000021,0.087588773877869758,-14.586471619703794,-156.5399609696367
20.027655651693966,0.08738080760603105,-14.590308142675351,-156.62121621381806
20.055349545141485,0.087604828687365771,-14.584293968480935,-156.62174165865417
20.083081733222521,0.087666181584886774,-14.58121966513888,-156.6597455700342
20.110852268890298,0.08748513326026218,-14.578678187384416,-156.66176543154373
20.138661205171157,0.08759234887094576,-14.582082236968612,-156.66146035920303
20.166508595164789,0.087364828076635717,-14.580165455283359,-156.72049659778915
20.194394492044371,0.087464899572040081,-14.58303183235903,-156.69870260934002
20.222318949056476,0.08745344065998098,-14.582422002322401,-156.7952027102437
20.25028201952145,0.087518509146839701,-14.569603524047976,-156.79007665816317
20.278283756833272,0.087536111424561788,-14.565665256068483,-156.7844145156345
20.306324214459771,0.087586230532665593,-14.570012372273185,-156.78542153491358
20.334403445942787,0.087279918067014989,-14.57035800859315,-156.8508733973222
20.362521504898044,0.08753838593525487,-14.564663251415706,-156.83842774472578
20.390678445015563,0.087580606970101921,-14.561304951889042,-156.90346815828585
20.418874320059516,0.087153776370382574,-14.557998492453592,-156.84643411223223
20.447109183868413,0.087355304697761149,-14.548775091637388,-156.87801899162133
20.475383090355312,0.087396845897388692,-14.564894993434939,-156.94724028765728
20.503696093507664,0.087497420819648231,-14.549659117414462,-156.96864182302397
20.53204824738771,0.087363303842054582,-14.550986965933346,-156.9986410807729
20.560439606132388,0.087548845808688602,-14.552694802035679,-157.03232234082674
20.588870223953467,0.087602593999003414,-14.548063686915979,-157.03312405923975
20.617340155137786,0.087263102194591713,-14.547973084161415,-157.02304854427942
20.645849454047088,0.087260470006883001,-14.547424009459803,-157.06369388714432
20.674398175118451,0.087509034833245208,-14.545883427810741,-157.03352677384865
20.702986372864121,0.087649272047340257,-14.542623912489251,-157.06738304292787
20.731614101871742,0.087543859392931897,-14.542715090892619,-157.06450831508391
20.760281416804517,0.087683170297713109,-14.534893847916731,-157.12483943035232
20.788988372401093,0.087348851227477653,-14.533853659143398,-157.12248156087475
20.817735023475944,0.087421433495572576,-14.523611285099038,-157.19193653964373
20.846521424919271,0.087757918968883311,-14.532775929843975,-157.17621155992498
20.875347631697171,0.087357392024934144,-14.53502788282057,-157.22926723124584
20.904213698851823,0.087554978129812028,-14.526795546852441,-157.19670708198231
20.933119681501388,0.087510622221020712,-14.525951706898892,-157.28660998994985
20.962065634840375,0.087722797487731083,-14.520640887915208,-157.27009814909789
20.991051614139533,0.087737659452562372,-14.5218869167898,-157.29814322767604
21.020077674746044,0.087474481036632551,-14.516916562179778,-157.29744974792476
21.049143872083715,0.087675099108286053,-14.511873746531514,-157.36166003043664
21.078250261652819,0.087657962196544675,-14.51583373190668,-157.35593957833339
21.107396899030547,0.087570073416509242,-14.514220794041965,-157.39629139834281
21.136583839870838,0.087534847222881948,-14.511711403113321,-157.37641938294078
21.165811139904608,0.087475510338916873,-14.504000802190649,-157.35399842413253
21.195078854939904,0.087705975398219546,-14.513812200682317,-157.41466048522926
21.224387040861803,0.087325108030161663,-14.509608026195181,-157.47398260199438
21.253735753632803,0.087589357660285069,-14.505349347053816,-157.47242997715932
21.283125049292707,0.087588220525490826,-14.505981685081368,-157.5074809078605
21.312554983958805,0.087529146915355988,-14.506545990979717,-157.48024581165089
21.342025613826067,0.08772297778685223,-14.498911032585236,-157.4685507819454
21.37153699516703,0.087256278532224993,-14.495589883688565,-157.55489173082228
21.401089184332182,0.087418491632718531,-14.499754649931758,-157.55492359379491
21.430682237749853,0.087419152028962027,-14.493426354673996,-157.57519349360973
21.460316211926393,0.087307956434185666,-14.491921321134786,-157.56246597007654
21.489991163446387,0.087231464745019277,-14.488063873719399,-157.59136426401787
21.519707148972504,0.087237090684333399,-14.482706527648517,-157.63685579321597
21.549464225245909,0.087344096389079501,-14.483734354779203,-157.59746521471754
21.579262449086155,0.087416520846539558,-14.488880674240734,-157.65978187607359
21.609101877391364,0.087667212565663205,-14.483885869422565,-157.69842805501625
21.638982567138417,0.087311032534540936,-14.475474118813967,-157.68629656919569
21.668904575382829,0.087353605652532321,-14.484375680891539,-157.720638685305
21.698867959259157,0.087471230004570105,-14.472059169494898,-157.70751964293788
21.728872775980886,0.087069359560149037,-14.475891525329011,-157.74268103790789
21.758919082840617,0.087416313166481491,-14.472873038943312,-157.72373940386623
21.789006937210253,0.087469432040675255,-14.474979186391705,-157.80026309379866
21.819136396540873,0.087597895303401438,-14.473796800951888,-157.83638127988678
21.849307518363169,0.087507790897964746,-14.469826629396472,-157.81448043060018
21.879520360287277,0.087433982507606339,-14.46835323276277,-157.8426386226829
21.909774980003014,0.087530696145360409,-14.461860342725206,-157.85796209528172
21.940071435280046,0.087494467465953199,-14.464699916638198,-157.88896553542168
21.970409783967764,0.087367116397477504,-14.462911099584588,-157.89634249333858
22.000790083995721,0.08761308898672529,-14.458616356125617,-157.93803644584949
22.031212393373472,0.087564118450800255,-14.453747046567649,-157.94879121387797
22.0616767701908,0.087674426641440373,-14.456090766387469,-157.94284247313331
22.092183272617881,0.087524174874923283,-14.446119543613339,-157.93765060551232
22.122731958905202,0.087413669760970494,-14.45030671124808,-157.9783886402775
22.153322887383926,0.087565780351428868,-14.445418253614912,-158.03895464522867
22.183956116465801,0.087603937675470395,-14.439454483616974,-158.02235217932633
22.214631704643335,0.087378278547659824,-14.440103217578379,-158.0123418262512
22.245349710490029,0.087165016181387556,-14.442595794438178,-158.12679386834586
22.276110192660195,0.087564725562042797,-14.441693654039966,-158.08235437068601
22.306913209889423,0.087621132432291554,-14.439780468528729,-158.13483619391076
22.337758820994438,0.087414088107448329,-14.438679510037012,-158.13441594607423
22.368647084873277,0.087182027562742931,-14.434426639070566,-158.14520771999568
22.399578060505501,0.087323975867832054,-14.422714415405158,-158.15588793761958
22.43055180695216,0.087323575615762331,-14.434628610581207,-158.19278318468619
22.461568383355988,0.087355142710627581,-14.43025387755984,-158.23039874181094
22.492627848941503,0.087430002041169172,-14.43124563941655,-158.17610981508238
22.523730263015093,0.087311278678126755,-14.424660179674138,-158.25788711448379
22.554875684965239,0.087175888703539331,-14.420630813078256,-158.2436800387666
22.58606417426244,0.087460801296878388,-14.423755854021774,-158.20859396643476
22.61729579045949,0.087525236609686807,-14.41451760828706,-158.24111274441796
22.648570593191511,0.08736060147555752,-14.424755167705365,-158.33441446148737
22.679888642176063,0.087431399148230407,-14.417674665611049,-158.28584024102443
22.711249997213358,0.087706244429681418,-14.419437806847288,-158.3243451749409
22.742654718186238,0.087403652233364187,-14.408613720567946,-158.36588689552696
22.774102865060353,0.087130768015519777,-14.416754637016938,-158.32948736232095
22.805594497884286,0.087400572990887354,-14.407001118053994,-158.34093384642159
22.83712967678963,0.08737273181447025,-14.403938644122768,-158.42204067216241
22.86870846199119,0.087322675892003737,-14.401261833948711,-158.4223306766412
22.900330913786973,0.087359377392623172,-14.399491518031116,-158.40300555019158
22.931997092558387,0.087388717150060302,-14.403918754696646,-158.48804936576255
22.963707058770328,0.087454731293551011,-14.397647800707812,-158.49527474569172
22.995460872971286,0.087552303401479542,-14.396682862063958,-158.47755078560411
23.027258595793544,0.087419479576691134,-14.402168223955517,-158.55441925445669
23.059100287953154,0.087343499617870066,-14.39663918747172,-158.5337291680577
23.090986010250148,0.087488257613504899,-14.392023968905765,-158.58884134520162
23.122915823568633,0.08742904261456666,-14.392297511294887,-158.48119474036559
23.154889788876883,0.087227506343716191,-14.390510431526891,-158.53984276334947
23.186907967227555,0.087626210929385911,-14.387239388387208,-158.5887003726543
23.218970419757639,0.087294061021349456,-14.390313882355679,-158.59411330980805
23.251077207688706,0.087501920987908613,-14.382284161288299,-158.58524190134455
23.283228392326976,0.087495512393560695,-14.385157470246776,-158.62517618116743
23.315424035063415,0.087445756695452695,-14.382521464532505,-158.64670160626451
23.347664197373959,0.087169057048486681,-14.376766467344522,-158.67509314287796
23.379948940819467,0.087194305001823652,-14.372828461013658,-158.68658534974603
23.412278327045971,0.087138302166845649,-14.380539820072096,-158.76385547582805
23.444652417784717,0.087419235690063046,-14.369270538306591,-158.7820511865319
23.477071274852314,0.087548082090059931,-14.372206665533911,-158.77196772049444
23.509534960150898,0.087199797390283051,-14.370591981582594,-158.77479356261915
23.542043535668157,0.087406273331118917,-14.361427377043078,-158.7935023499044
23.574597063477487,0.087500788682491393,-14.369105039315382,-158.8037173464586
23.607195605738141,0.087348347396831852,-14.362144269281114,-158.80207232472
23.639839224695301,0.087409800761622539,-14.356706122753968,-158.83457848124618
23.672527982680279,0.087336758583412402,-14.367666513180712,-158.82339826776743
23.705261942110514,0.087375914540907429,-14.358713115546964,-158.92410876062306
23.738041165489772,0.087381638743475154,-14.351697094790532,-158.88783925430687
23.770865715408263,0.087329489285360981,-14.355559897261902,-158.91940921332321
23.803735654542709,0.087627984883815901,-14.356165803285652,-158.90725893346442
23.836651045656573,0.087381516164180051,-14.355812768668201,-158.94180410034565
23.869611951600039,0.087193673806887376,-14.346344570872393,-158.91960819699921
23.902618435310217,0.087418353819529102,-14.355972986985751,-158.99541304229521
23.935670559811257,0.087271586806056747,-14.349070565283014,-158.9822607755396
23.968768388214411,0.087179819860173702,-14.350018048371709,-158.97028345773654
24.001911983718305,0.08729095344380261,-14.345134605254175,-158.98777111011108
24.035101409608849,0.087548506516096247,-14.335236768497833,-159.02315206217767
24.068336729259517,0.087369515540323101,-14.342450711932999,-159.0206809079906
24.101618006131392,0.087309925378527969,-14.337956307556334,-159.01966579889321
24.134945303773296,0.087205369220931403,-14.33691133026322,-159.08549777713202
24.168318685822005,0.087471961631576417,-14.34274217711268,-159.11195273946882
24.201738216002195,0.087433758047629276,-14.339073265215841,-159.10063644231954
24.235203958126711,0.087585471072692767,-14.33641021728242,-159.1513305571888
24.268715976096619,0.087315077796034174,-14.325984745761339,-159.14806883178866
24.302274333901334,0.087448469714597327,-14.324853433517413,-159.20325161024348
24.335879095618811,0.087619543050124787,-14.325968455995206,-159.20385693810624
24.369530325415557,0.08744280541474786,-14.324035656676923,-159.2075804522714
24.403228087546822,0.08745303897468229,-14.320718996144304,-159.206745506483
24.436972446356702,0.087359076823901843,-14.322537558491126,-159.20320148437349
24.470763466278253,0.08727582702388384,-14.318526778692636,-159.2268448687945
24.504601211833695,0.087854267117928653,-14.315874819145638,-159.27585071249655
24.538485747634393,0.087500169989321738,-14.315195824956771,-159.25882886815123
24.572417138381091,0.087190737922102773,-14.310834540053399,-159.29658748759195
24.60639544886396,0.087433289963200406,-14.320530987525341,-159.34081737774335
24.640420743962853,0.087334429402264185,-14.309793652070365,-159.35442287745676
24.674493088647242,0.087600477117395284,-14.299992242112738,-159.33736513938373
24.708612547976482,0.087692751936883584,-14.302004299186425,-159.32704067194379
24.742779187099885,0.087130357141834258,-14.304216251608805,-159.36751941448273
24.776993071256815,0.087241716051727813,-14.301892139834981,-159.40609087167525
24.811254265776942,0.087602435155624561,-14.301749274027449,-159.38492413364369
24.84556283608018,0.087480287660156586,-14.303829293101183,-159.43009842698288
24.87991884767694,0.08753221784377016,-14.300226405724652,-159.45170238480836
24.914322366168218,0.087221147347051414,-14.294198573314238,-159.46004646695536
24.948773457245686,0.087490532969067211,-14.287661960347901,-159.49386426885866
24.983272186691948,0.087156167394848494,-14.285497327265384,-159.49471916368563
25.017818620380485,0.087280274705853533,-14.287222319729512,-159.4784334805091
25.052412824275887,0.087291278817258205,-14.279627062407808,-159.4955147668876
25.087054864433973,0.087255558975811373,-14.277889918359479,-159.56484026573349
25.121744807001857,0.087317546242814542,-14.278797298813098,-159.51133909846095
25.156482718218211,0.087481173895970543,-14.285561536286828,-159.57184110605633
25.191268664413233,0.087111080069641883,-14.27197722874695,-159.61427063935525
25.226102712008835,0.087543052632955129,-14.28363467197256,-159.62981390294914
25.260984927518816,0.087396026852372244,-14.266512219400713,-159.6102162039486
25.295915377548891,0.087489432427291861,-14.276064529222904,-159.62236008133701
25.330894128796967,0.087425660153844439,-14.275272207499665,-159.59824955457572
25.365921248053105,0.087453438636900541,-14.269543708616023,-159.68415355766456
25.400996802199742,0.08730729393692778,-14.260393526081714,-159.63940135632416
25.436120858211801,0.087566039736981821,-14.260179542885878,-159.68901795108778
25.471293483156792,0.08730528879199706,-14.259817786930073,-159.69596389636294
25.506514744195041,0.087333254231365343,-14.26386430495822,-159.72087955110445
25.541784708579666,0.087306933417969274,-14.25913039067073,-159.75415876101164
25.577103443656803,0.087290074926241495,-14.258248790426482,-159.71714311692244
25.612471016865719,0.087574400473212521,-14.256660036911269,-159.8160296497108
25.647887495738907,0.087215709116619772,-14.253752280514727,-159.7842255927558
25.683352947902314,0.08722283521080057,-14.251976069739104,-159.81946497870769
25.718867441075336,0.087215516743054805,-14.254998944298814,-159.8196372645217
25.754431043071019,0.087093260609265699,-14.249344246447656,-159.79335883808008
25.790043821796193,0.087104035105494262,-14.246381504081709,-159.84742974973682
25.825705845251552,0.087109439259347915,-14.248707739466393,-159.87723563527263
25.861417181531905,0.087169153085487963,-14.243343417465166,-159.88251842506884
25.897177898826147,0.087318523041524071,-14.245985451307837,-159.89582009933386
25.932988065417479,0.087262842390984627,-14.239835637744331,-159.89921695309914
25.968847749683526,0.087012217715479817,-14.237554813912116,-159.89102431757871
26.004757020096445,0.0874566970115815,-14.233733236406877,-159.98006109788199
26.040715945223145,0.087355951917175961,-14.237403925782605,-159.93815357973875
26.076724593725274,0.087518185785873934,-14.237423496702736,-159.93140693569674
26.112783034359428,0.087540518270091516,-14.227783854537211,-160.00024426134325
26.148891335977375,0.087503805445411725,-14.225064751627816,-159.98085712813207
26.185049567525905,0.087259439669502142,-14.227172415355749,-160.02055005109716
26.22125779804734,0.087467483382208194,-14.219398911075444,-160.03435783164119
26.257516096679367,0.087432547204350244,-14.222173235831777,-160.02722778050122
26.293824532655261,0.087482649727742917,-14.222712429107284,-160.05446845209886
26.33018317530416,0.087302129824221336,-14.223941667760743,-160.09412660317869
26.366592094050862,0.087300497242190647,-14.215302376749705,-160.10399721778856
26.403051358416359,0.087577735763659847,-14.20987840855785,-160.10026194756392
26.439561038017672,0.087534443311306942,-14.213553602365195,-160.12717238959272
26.476121202568084,0.087650975734393899,-14.2108888251044,-160.12346461468371
26.512731921877382,0.087637059781839666,-14.208912046243105,-160.12226417109321
26.549393265851705,0.08768563507556576,-14.19965780009338,-160.18895505274119
26.586105304494033,0.087547466325284679,-14.207110819144093,-160.23326635793919
26.622868107904043,0.087575298591096001,-14.202805739040091,-160.21536188729741
26.659681746278345,0.087640007948430271,-14.20184409206531,-160.18801589620023
26.696546289910728,0.087873491090289496,-14.206968328572088,-160.20277035478861
26.733461809191979,0.087440804895440982,-14.198446822537258,-160.25288331707225
26.770428374610429,0.087755894918834385,-14.206843526801407,-160.25200637193268
26.807446056751754,0.087676260887977669,-14.196542825095694,-160.29858087339866
26.844514926299244,0.087388013089956917,-14.194499276320883,-160.29883053783334
26.881635054034032,0.087671210563853713,-14.193809754904223,-160.35234355761588
26.918806510834937,0.087499904356154123,-14.193038692145016,-160.31358340596989
26.956029367678987,0.08759853158384065,-14.179878051797646,-160.41341049809989
26.993303695641227,0.087314287220501469,-14.185253026753262,-160.36912985119426
27.030629565895008,0.087590635417418697,-14.184241058995578,-160.3691912441451
27.068007049712186,0.087680015611419193,-14.180061044537142,-160.37216052577628
27.105436218462991,0.087683637976081627,-14.178603402402619,-160.35010666621343
27.142917143616533,0.087669014668114983,-14.184575315071104,-160.40898520828867
27.180449896740633,0.087374682314684621,-14.176240074206902,-160.43103933278405
27.218034549502086,0.087253387259646487,-14.172720715818718,-160.43658327094462
27.255671173666883,0.087478116762077854,-14.177793305004156,-160.45727646520515
27.293359841100063,0.087643559425504156,-14.161896896430699,-160.44218885819762
27.331100623766243,0.08750650415617417,-14.171325357658196,-160.46208313673995
27.368893593729425,0.087404780830466058,-14.171196694171645,-160.50145018353092
27.406738823153265,0.087642307597720015,-14.165719829668159,-160.53001345209282
27.444636384301326,0.08768376086461932,-14.162233034936545,-160.53728871509313
27.482586349536891,0.087489316823491259,-14.163530724042396,-160.52625283618684
27.520588791323497,0.087296344652995336,-14.161389590856327,-160.58427533060129
27.558643782224785,0.087255578932865369,-14.159154526727724,-160.58602834645345
27.596751394904718,0.08743275770771966,-14.15504108029748,-160.57766491694252
27.634911702127873,0.08739766853408662,-14.157601125509053,-160.58121180697464
27.673124776759224,0.087494219043313004,-14.150751280070548,-160.59117059226193
27.711390691764706,0.087512054374916687,-14.149765720965505,-160.59763989713792
27.749709520211052,0.087538297204305546,-14.152784424695636,-160.67058302618949
27.788081335266007,0.087785327350854772,-14.153381348781597,-160.65021255820471
27.826506210198627,0.08770373431941822,-14.143954936287352,-160.73014009657462
27.864984218379057,0.087490289052479686,-14.145817928279101,-160.65068695458677
27.903515433279125,0.087393256393405366,-14.138846870311374,-160.72854930843013
27.942099928472125,0.087524835008499238,-14.143262067906619,-160.69291717785515
27.980737777633088,0.087637026267588083,-14.138250071531214,-160.75082094222074
28.019429054539035,0.087548060701086103,-14.133321925980315,-160.77742848626684
28.058173833068814,0.087420936279618972,-14.134906324371412,-160.77551112855258
28.096972187203619,0.0875332610319704,-14.132438433952261,-160.75711994975489
28.135824191026842,0.087761316272766787,-14.127771104871364,-160.82768530784477
