#Digilent WaveForms Network Analyzer - Bode
#Device Name: Discovery2
#Serial Number: SN:210321A18F9B
#Date Time: 2017-05-16 13:55::16.013

Frequency (Hz),Channel 1 Magnitude (dB),Channel 2 Magnitude (dB),Channel 2 Phase (°)
20.000000000000021,0.038900145813052421,-0.40634022910514744,5.7807184599828894
20.013821666009239,0.035198911620852799,-0.39829293548539635,5.7484994258634128
20.02765288394102,0.038074102071448485,-0.4033247133534511,5.761457678644839
20.04149366039654,0.034972888860633079,-0.39633542397019828,5.7403013422969487
20.055344001981531,0.034056188790918845,-0.39762124144201616,5.7413270572249262
20.0692039153063,0.033848365477751649,-0.39532220028532566,5.7168838179035451
20.083073406985712,0.035001810943170134,-0.39650242699241145,5.7336293170710508
20.09695248363921,0.03352550015863448,-0.39697671298186349,5.7309878233221037
20.11084115189081,0.03370031354840472,-0.39317851631566586,5.7336518752199561
20.124739418369124,0.034836849922055775,-0.39619187297412728,5.7359752459073992
20.138647289707265,0.033370494857285833,-0.39409200263847344,5.7132764774403277
20.152564772543055,0.034833043837419052,-0.39154006928915103,5.7140724795793947
20.166491873518837,0.036680834526493802,-0.39610969992709322,5.7185118576223362
20.180428599281505,0.035807756454023523,-0.39499780921772581,5.7170169998586742
20.194374956482591,0.034819090320850191,-0.39658267201101249,5.7248976698851974
20.208330951778283,0.037894179021337154,-0.39521673844691402,5.732335963453389
20.222296591829245,0.036014086078520878,-0.39434307706987909,5.7115288730992289
20.236271883300827,0.037627935526406996,-0.39321687843433439,5.712469093837738
20.250256832862963,0.037648527291922335,-0.39550386555033246,5.7283313020046043
20.264251447190198,0.034484817608590186,-0.39154090279970133,5.7485588513431587
20.278255732961693,0.038493708218865205,-0.39375559404887323,5.7188666461117279
20.292269696861215,0.036979030262554113,-0.39416556363413824,5.7113547619291651
20.306293345577167,0.03506434091639124,-0.39393104556431502,5.6829320088859845
20.320326685802556,0.037090561850900643,-0.39296602201636671,5.6681862839897477
20.334369724235025,0.035124437763173436,-0.39008551386715917,5.6928610299898637
20.34842246757686,0.032736751283074836,-0.38552555398612459,5.673725726074581
20.362484922534907,0.032649928072286928,-0.38888972463524268,5.6673534059176829
20.376557095820758,0.034245781093289712,-0.38927610077089841,5.7051403875797524
20.390638994150589,0.036916157301035431,-0.38873870114364906,5.7020308172744185
20.404730624245172,0.034917026223487711,-0.38813458430426767,5.6784531266024434
20.418831992829968,0.034859715203841297,-0.38755879557295209,5.6950994963580088
20.43294310663515,0.03841960367598074,-0.39216374536821413,5.6949266524256181
20.447063972395416,0.03264415890278953,-0.38505019216960285,5.6768770747732447
20.461194596850191,0.035218110545056372,-0.38568770838659583,5.6678074205775815
20.475334986743555,0.037421794880052865,-0.38946868994562506,5.6487211869766671
20.489485148824237,0.034097732658728064,-0.3850687392635222,5.6526633770223844
20.50364508984563,0.035761645790338949,-0.38486252867609305,5.6511362343792806
20.517814816565799,0.03690341522313046,-0.38814479317236494,5.6721734595176176
20.531994335747481,0.033853509043797844,-0.38352302679380779,5.6591097244613842
20.546183654158071,0.036436903323168963,-0.3852100503091202,5.6518383742837699
20.560382778569661,0.03410271381665142,-0.38205549334579669,5.6564311976711403
20.574591715759038,0.033249142288926212,-0.38133976992866314,5.6591271457279291
20.588810472507578,0.034087372833859424,-0.3840553412217419,5.649396598646069
20.603039055601485,0.035256899187373195,-0.38140129714500587,5.6421736333626091
20.617277471831574,0.035265715781014159,-0.37911363909079515,5.6433127508148022
20.631525727993328,0.035828237707342649,-0.3834216175298733,5.6350725631637353
20.645783830886948,0.036818820527701961,-0.38258170810727787,5.6501000145154281
20.660051787317421,0.035542257535152576,-0.3827726884444963,5.6290926849326617
20.674329604094297,0.03658525526117154,-0.38169764506160453,5.615966403379824
20.68861728803191,0.038365260198722571,-0.3823381966555085,5.6476927227853295
20.702914845949294,0.034995293883264243,-0.3812525301724613,5.6203424279950553
20.717222284670193,0.035854057514377119,-0.37937256339426217,5.6126054853597172
20.731539611023067,0.03529959522347665,-0.37972845062504285,5.5964246829337085
20.745866831841088,0.035787059584932855,-0.38063977456815168,5.6137189698486072
20.760203953962158,0.034733530362582178,-0.3772495975924044,5.5972726166829139
20.774550984228906,0.037936245809423327,-0.38513737965213402,5.5964968567078737
20.78890792948868,0.038141738591718426,-0.37980638150460821,5.6005137501425706
20.803274796593591,0.034815352720557934,-0.37675012188452012,5.6230717794157661
20.817651592400392,0.036062715040490939,-0.38059884973556934,5.6183504945765836
20.832038323770714,0.034732249333368152,-0.37712514666110858,5.6194826060277787
20.846434997570853,0.03469777818989872,-0.37731211633066869,5.5961836026560388
20.86084162067182,0.034727215106213113,-0.37638380896155887,5.5918203786474585
20.875258199949403,0.03698519089997318,-0.37978755017574944,5.5707156669560831
20.889684742284217,0.035978514128811118,-0.37629059881186283,5.598021058000894
20.904121254561506,0.0377969028064589,-0.37649778285248231,5.5922644030047053
20.918567743671343,0.035743317388240443,-0.37514715854334291,5.5748403814473342
20.933024216508553,0.037284831591694122,-0.37519933891488644,5.5934078817403803
20.947490679972727,0.035875473314694609,-0.37418608772346473,5.5930240631716055
20.961967140968213,0.036783349720588193,-0.37369084472720637,5.5832941080981797
20.976453606404149,0.035487833782758528,-0.3707384021510518,5.5972823462135093
20.990950083194427,0.036335766957698863,-0.37264500521469235,5.5691901381393425
21.005456578257732,0.035829232303202611,-0.37343744458914629,5.5931953863396258
21.019973098517521,0.036248840243099115,-0.37467488322073617,5.5882966229822548
21.034499650902067,0.036684751212765099,-0.37419416886901236,5.5426636189763272
21.049036242344336,0.034168578169881378,-0.37036284949542719,5.5596765281293292
21.063582879782217,0.035647583214312925,-0.37047512847730302,5.561510700894309
21.078139570158328,0.03463001538390257,-0.37147926696782307,5.5704922750031205
21.092706320420028,0.035398008685649872,-0.37141168423392334,5.5730949010541453
21.107283137519595,0.03297070285529325,-0.36656074174592773,5.5293531550272235
21.121870028414058,0.039394411541519049,-0.37600537477058577,5.5429143578351372
21.136467000065199,0.040462559832098656,-0.37642875054461572,5.5500575247688104
21.151074059439665,0.033830515152569199,-0.36545463174877973,5.549465359065219
21.165691213508975,0.033762138588451993,-0.36794635401674036,5.5457359817616281
21.180318469249347,0.036944453683119563,-0.37089995233606887,5.5501835900271468
21.194955833641888,0.033387294239386113,-0.37089317035520242,5.5128824931213476
21.209603313672524,0.038650440155563258,-0.37129525640987471,5.5200508093255234
21.224260916332003,0.037349250795002578,-0.3713983196837673,5.5105474998605342
21.238928648615904,0.035771132486079486,-0.36805095363304163,5.5263008836734171
21.253606517524641,0.036305445683329302,-0.36767765007336634,5.5531043544596734
21.268294530063471,0.034301175456927728,-0.36492459410489736,5.5267586207977368
21.282992693242484,0.03668707748840741,-0.36862745486153253,5.5480369458524867
21.297701014076612,0.037156907119360164,-0.36532561557378612,5.5337537743179244
21.312419499585673,0.035747875926141814,-0.36715493566194457,5.5185639046606791
21.327148156794234,0.036582584518339338,-0.36580162689633516,5.5051168922174254
21.341886992731848,0.036725877865255011,-0.36653650558440726,5.5030652868242473
21.356636014432869,0.032511942398873041,-0.36128901210137987,5.5094588096688035
21.371395228936468,0.03488009465676209,-0.3628581034788132,5.5019101672575514
21.386164643286712,0.033267224870576657,-0.36198245738761259,5.5147970529258448
21.400944264532619,0.036285223630008689,-0.36446993122828608,5.4946261339756308
21.415734099727931,0.035039095969737699,-0.36191547430628351,5.4972815744696657
21.430534155931365,0.036912526851429879,-0.36366350492961563,5.4904282562670508
21.445344440206483,0.034343600888801062,-0.36291356694515325,5.4703211088497934
21.460164959621743,0.035617112360215024,-0.35966313152074075,5.5149198776849513
21.474995721250476,0.038836874640606561,-0.36379158598093231,5.48024879342322
21.4898367321709,0.034778329121231744,-0.35919661242812256,5.49484844844915
21.504687999466132,0.036360616461129473,-0.35995627712227057,5.443215835702067
21.519549530224186,0.036390196758389448,-0.3629645238508325,5.4789194509625156
21.534421331537967,0.034843113020519699,-0.3609818144437022,5.4657039615535279
21.549303410505306,0.036052035590807816,-0.36046320314988245,5.5097972478732604
21.56419577422885,0.037478574324253854,-0.36133096097938849,5.4756530004905812
21.579098429816284,0.039651186705988363,-0.36195627922976659,5.4934375163073987
21.594011384380153,0.035449828017796177,-0.35950665282811683,5.4539115759716363
21.608934645037863,0.032997356510900293,-0.3556309150146032,5.4504710113083892
21.623868218911781,0.032873303969823596,-0.35633028393830635,5.4443163782578647
21.638812113129259,0.036542013083318468,-0.35857280398742947,5.4356929274884855
21.65376633482245,0.037534297890453948,-0.36065756235107793,5.4816635283471467
21.668730891128529,0.036159313579231155,-0.35842117056271272,5.4464898582380794
21.683705789189574,0.033953097747268776,-0.3556937784984352,5.4717031775911185
21.698691036152589,0.034512480996375147,-0.35430721543169608,5.4454766319903758
21.713686639169534,0.036473882075599123,-0.35832673834583029,5.4385913800657217
21.728692605397303,0.036333561482564683,-0.35771050798193538,5.4350997064109059
21.743708941997742,0.036987112065946438,-0.35519426234829754,5.4674578127486093
21.758735656137638,0.034459745126714889,-0.35521947143788357,5.4506893718138745
21.773772754988741,0.034989771153108286,-0.35481069332902759,5.4579619588171031
21.788820245727766,0.037024359402914583,-0.35409564308780628,5.4233952518588122
21.803878135536308,0.035677941256770672,-0.35550598324386939,5.3872597158608659
21.818946431601059,0.03292935628609775,-0.35253741707905484,5.4354979060218573
21.834025141113617,0.040069698109265507,-0.36006117945067095,5.4281854316288758
21.84911427127048,0.03692131956351196,-0.35203854599912976,5.4188342526983817
21.864213829273197,0.036303850175463032,-0.35457594594975445,5.4392511587054413
21.879323822328335,0.036088975471785828,-0.35133552331139023,5.4287237996410393
21.894444257647326,0.03530381698713634,-0.35233386270946032,5.4305269282830126
21.909575142446656,0.03614606857968037,-0.35004607389013115,5.4083079027790628
21.924716483947794,0.033545808162779744,-0.35029064737737103,5.4136549225935102
21.939868289377191,0.036526130427625758,-0.35321119435811393,5.4268453003607826
21.95503056596629,0.035670441755790566,-0.34994786056235733,5.3901860695200305
21.970203320951541,0.036196847231691087,-0.35140148684924399,5.3875615542535318
21.985386561574376,0.034873841693632807,-0.35190946942536966,5.4035572155696023
22.00058029508126,0.03585894648157982,-0.34971906756089549,5.3947521460007284
22.015784528723639,0.033218591753414531,-0.34646619122972344,5.3968983056476354
22.030999269758009,0.03593290943692215,-0.35037128589375027,5.4210668611562598
22.04622452544578,0.036515429920307874,-0.35034077244768397,5.385605136806956
22.061460303053529,0.034204009566989942,-0.34889518639333472,5.4062239419104552
22.076706609852774,0.036725370451319753,-0.35089339602810016,5.3496815598631278
22.091963453120016,0.03724073020751472,-0.34788574710450348,5.3743222232565637
22.10723084013684,0.038047708390049957,-0.34992907059039341,5.3897153237529878
22.122508778189914,0.03553522254225655,-0.34577903867171439,5.3735665228335634
22.137797274570818,0.036111601478082303,-0.34722816912029741,5.364095598452332
22.153096336576262,0.03601203165928004,-0.34838156443911888,5.3519290829697628
22.168405971507973,0.037416440094234442,-0.34786898899648477,5.3660552533226857
22.183726186672722,0.039571583162533217,-0.34980260822061959,5.3785785410964682
22.199056989382328,0.038247088472244464,-0.34693747653376716,5.366203918645458
22.214398386953672,0.033844350437112106,-0.34101989157810492,5.3688470760996037
22.22975038670868,0.035835922481426384,-0.34571338104499533,5.3658631584979446
22.245112995974349,0.035303732783302962,-0.34717613435253025,5.3679849952269674
22.260486222082733,0.034932204917118952,-0.34490648074263935,5.3799943399404508
22.27587007237095,0.034453253887876463,-0.34295055259541429,5.3222798856655693
22.291264554181204,0.036422605540695062,-0.343361043478705,5.3477941762285628
22.306669674860757,0.036821917382797678,-0.34530121699092925,5.3302108244782129
22.322085441761971,0.036857707961134564,-0.34628339843311434,5.3550714720966024
22.337511862242213,0.036620532526441464,-0.3426467890739282,5.3132920037354268
22.352948943664057,0.03672358693210967,-0.34221025097516433,5.3313904783392072
22.368396693395102,0.035958512074206098,-0.34262215283287373,5.3279344339229207
22.38385511880799,0.035762693061775472,-0.34184414293864207,5.3418004802237959
22.399324227280509,0.035293985782383783,-0.34270625627173723,5.3277089951815171
22.414804026195615,0.037787394945722905,-0.34229748586589803,5.3383653616799762
22.430294522941224,0.035882136279779347,-0.33996864021419793,5.3155454875064452
22.44579572491045,0.033548402261681425,-0.3377758778309306,5.3251819667136795
22.461307639501491,0.033710968957640877,-0.33907841693331875,5.2952780530897439
22.476830274117663,0.03535602935302766,-0.34008967991999012,5.3067790326206117
22.492363636167404,0.034913371584152753,-0.33953542268351211,5.3352130088253773
22.507907733064254,0.036977363815219683,-0.33992262257890399,5.3008200938845285
22.523462572226887,0.036532757807836234,-0.34031600524872357,5.2886518239540772
22.539028161079109,0.034120823749851266,-0.3350669557851163,5.305282567574416
22.554604507049849,0.040078654763412991,-0.34278222963582228,5.3201335616929404
22.570191617573194,0.036883484483263,-0.33767927641883383,5.3174150628068606
22.585789500088278,0.035354915041309075,-0.33641577014457913,5.3120828789773391
22.601398162039516,0.036521983068402583,-0.33769150619084837,5.3096189080195755
22.617017610876392,0.036108286096357453,-0.33584740039442951,5.2829926695022476
22.632647854053499,0.036561709551651944,-0.33736132344625552,5.3026635013865233
22.648288899030621,0.037236778131243445,-0.34044444258888706,5.264302848098656
22.663940753272779,0.039891443801957562,-0.34055502846193186,5.2830604663267913
22.679603424250001,0.03798231062189672,-0.33839605668551709,5.2748627491788831
22.695276919437578,0.035564353217417174,-0.33365426240678908,5.2789600431109198
22.710961246315936,0.036427878431456034,-0.33753932894483168,5.3151957268282626
22.72665641237068,0.039518830805538099,-0.34050773324790401,5.2625394884246983
22.74236242509258,0.036436032920798708,-0.33616419260261737,5.2881181425716122
22.758079291977594,0.035706231895595235,-0.33267627075210904,5.2837258138453702
22.773807020526846,0.034354634185867046,-0.33286378593606269,5.2757179025168108
22.789545618246649,0.033179051126254668,-0.33014503816203611,5.275761409380995
22.80529509264851,0.037355317996721073,-0.33716317325468204,5.2588898691031716
22.821055451249148,0.03367455996645257,-0.33063100380283267,5.2338246589138659
22.836826701570374,0.035719743536335828,-0.33340555077832201,5.2608896366254072
22.852608851139347,0.036608608909309372,-0.33305715257161006,5.259193251145625
22.868401907488362,0.034516990054462113,-0.32862647952523116,5.2591032589695477
22.884205878154852,0.035627181898668148,-0.331022606702435,5.2265426823358094
22.900020770681532,0.036173524424040822,-0.33254968251012995,5.2365727154669415
22.915846592616379,0.036225613797038606,-0.33336071088174946,5.2585159508375368
22.931683351512461,0.036256332746281955,-0.32836145287800633,5.2274582799840665
22.947531054928152,0.032232029290777751,-0.32754674267136086,5.2571129524355822
22.963389710427016,0.034908945837362766,-0.32985719336194147,5.2311715442276707
22.979259325577868,0.038487353169595596,-0.33321331638471891,5.2413084507068035
22.995139907954734,0.033924884301398582,-0.32975008365994563,5.2516699123294686
23.011031465136885,0.036105349240590411,-0.32818731418575964,5.2331847686665487
23.026934004708824,0.034858067316275616,-0.32754836773144114,5.2352791954948055
23.042847534260293,0.032480822431911062,-0.32613688193320589,5.2225496600477603
23.058772061386289,0.035671025374446233,-0.32842541773583334,5.2181758183365963
23.074707593687066,0.036039911324998397,-0.32937628501521482,5.2255108030695512
23.090654138768059,0.036517549561154425,-0.32912661378754449,5.2146521991515282
23.10661170424008,0.034396503722527005,-0.32699974187544723,5.2481032375067826
23.122580297719139,0.036893766752893478,-0.33262441110998803,5.2090400286882819
23.138559926826456,0.034567540621146559,-0.32610528937525202,5.203315778135468
23.154550599188578,0.034627291765077846,-0.32733184600816978,5.1993832089286265
23.170552322437377,0.035549782582379758,-0.32630435406306579,5.1690168136504386
23.186565104209873,0.034014152783485012,-0.32308310532807533,5.1935185372677299
23.202588952148439,0.035898809325741229,-0.32601084039965206,5.2084980477427951
23.218623873900729,0.037938819224843129,-0.32714730240206386,5.1991229278231907
23.234669877119661,0.037087835185427215,-0.32624630842745761,5.1650933335410674
23.250726969463461,0.036989436480727764,-0.32672664440561261,5.1882413755649432
23.266795158595635,0.0350677999171847,-0.32293988295186327,5.217941027524196
23.282874452184984,0.035580822187045773,-0.3237799621714359,5.1657495125814652
23.298964857905617,0.036148720828181484,-0.31951487822021035,5.1853734882401898
23.315066383436939,0.036109554086503008,-0.32588794813257538,5.1694746217862679
23.331179036463674,0.036173090141306929,-0.32431360398787279,5.1757628782875864
23.347302824675836,0.034460618394058402,-0.32284167627585508,5.1850399312403805
23.363437755768771,0.03721708233306216,-0.32460632797301886,5.1772292315806077
23.379583837443164,0.034114010397401244,-0.32191389278018206,5.1713138309819939
23.395741077404949,0.037097745597581208,-0.31939992250463073,5.1769835909249524
23.411909483365424,0.034865962429817758,-0.32187927291321589,5.179755283480441
23.428089063041309,0.037284871279256698,-0.32146458450422877,5.1691955094631581
23.444279824154485,0.036883625840442899,-0.3209479223576337,5.1534078336638887
23.460481774432267,0.036960771586800001,-0.32225434658111946,5.163874663778806
23.476694921607368,0.033781350655160566,-0.31739011756050489,5.1416214340317818
23.492919273417705,0.034867025183087444,-0.31984669259656656,5.1595514999900658
23.509154837606641,0.036332725310696666,-0.31767276721686771,5.1424104817482013
23.525401621922857,0.03442300834466213,-0.31699411725114968,5.1653316189686738
23.541659634120407,0.034424802587248983,-0.31720682112038789,5.1516702153742049
23.557928881958681,0.03630709988210426,-0.31988855583368064,5.1381814666373975
23.57420937320245,0.035120497914549034,-0.31756858253086551,5.1416092570683452
23.590501115621837,0.036423308647848207,-0.31897156087238859,5.1343170594272927
23.60680411699235,0.03726905081403771,-0.31808386483443929,5.1314102957546472
23.623118385094855,0.034217679158845542,-0.31938897490213608,5.1372036877041474
23.639443927715629,0.038928604219068096,-0.32262306159396742,5.1400711299987378
23.655780752646226,0.036594221336209994,-0.31812749012565311,5.1214375778274714
23.67212886768375,0.036162039665955818,-0.31594332532354585,5.117865022789891
23.688488280630583,0.036209004646242687,-0.31632692576938948,5.1094568228211763
23.704858999294494,0.034664771275285319,-0.31474549930830709,5.1173405429588392
23.721241031488663,0.033645285033598905,-0.31400486100632202,5.1194117637793877
