#Digilent WaveForms Network Analyzer - Bode
#Device Name: Discovery2
#Serial Number: SN:210321A18F9B
#Date Time: 2017-02-22 10:20::19.065

Frequency (Hz),Channel 1 Magnitude (V),Channel 2 Magnitude (V),Channel 2 Phase (°)
10.000000000000012,1.0001379618853452,0.38591480177393078,0.31451864054736234
10.015407361541453,1.0001410216235449,0.38592101395028222,0.31594833740750516
10.030838461761862,1.0001220553796708,0.38588049299924532,0.32055427816450788
10.046293337236277,1.00011808584113,0.38582639089227899,0.32187202536128012
10.061772024596104,1.0001121413326242,0.38580329031715355,0.31894470638290784
10.077274560529155,1.0001177794655363,0.38575915709321346,0.32037674072574163
10.092800981779789,1.0001112376337213,0.38574533128463073,0.32242416506551308
10.108351325149009,1.000091520112633,0.38574872451275838,0.32287316486799256
10.123925627494456,1.000099483233182,0.38571429519753186,0.32278177330219648
10.139523925730614,1.0001434488501384,0.38568154707098767,0.32099697932171978
10.155146256828788,1.0001110429504925,0.38569027329650529,0.326560280821802
10.170792657817303,1.000121795012646,0.38567389244722472,0.32718706898650396
10.186463165781518,1.000106164989377,0.38568062109421258,0.32614953249035494
10.202157817863894,1.0001192349162527,0.38568545130324738,0.32366318593114585
10.217876651264161,1.0001294898346351,0.38567655379963844,0.32764764973172333
10.233619703239349,1.0001248828200509,0.38568786535166188,0.32790574766826097
10.249387011103892,1.0001078853625995,0.38568016046622072,0.33182088052609515
10.265178612229715,1.0001210914379575,0.38568578473165332,0.32910516307642013
10.280994544046324,1.000130845024485,0.38568817399418415,0.33216462862976215
10.296834844040905,1.000138643363842,0.38569612680531701,0.33093779391258948
10.312699549758369,1.0001460909210214,0.38569120238357124,0.33285154943273909
10.328588698801509,1.000128185512734,0.38569478764426079,0.33406187286154676
10.344502328831037,1.0001266622507328,0.385692761037154,0.33711851259076298
10.360440477565694,1.0001270887887239,0.38570497233968071,0.33508586194768952
10.376403182782349,1.0001228390865327,0.38569891642670784,0.33918293076193606
10.392390482316026,1.0000989705846619,0.38568531112093107,0.33719918600962018
10.408402414060115,1.0000911380363284,0.38566620660289758,0.33730567778869869
10.424439015966348,1.0001080204767887,0.38566422173552661,0.3379966924582547
10.440500326044919,1.0001001163247119,0.3856765220563409,0.33780333467456813
10.456586382364609,1.0001067453108159,0.38565843235500841,0.33736622308185815
10.472697223052849,1.0001374115385973,0.38565372379928919,0.3391276978873492
10.488832886295812,1.000100811167778,0.38566700196193515,0.33943200953666519
10.504993410338514,1.0001429468867102,0.3856498405745068,0.34065455537932365
10.521178833484859,1.0001251809235614,0.38566224589708215,0.34120399335281348
10.537389194097825,1.0001179705392536,0.38566049126279306,0.34138532868274751
10.553624530599469,1.0001187880577982,0.38564968206794481,0.34132113445220114
10.569884881471026,1.0001232735129977,0.38566802888787671,0.34592878518667902
10.586170285253049,1.0001421523295089,0.3856596566316291,0.34119393448160196
10.602480780545466,1.0001332456957881,0.38563271093299328,0.34202841796420103
10.618816406007671,1.0001357911034459,0.38564628926054678,0.34585703748862073
10.635177200358626,1.0001067548035558,0.38566066802414878,0.34554456746469953
10.651563202376947,1.0001346010005934,0.38563686354838361,0.3478626478349085
10.667974450901012,1.0001493661890861,0.38564438805782181,0.34720660973817985
10.684410984829,1.0001457572466315,0.38562133874648719,0.35078797361066449
10.700872843119061,1.0001319500859926,0.38562250758757405,0.34793662895633304
10.717360064789354,1.000112700880899,0.38562512944897837,0.3501006073323083
10.733872688918154,1.0001058829368461,0.38563516943007664,0.35191762206515165
10.750410754643962,1.000141767428175,0.38562201131354379,0.35262053121491732
10.766974301165531,1.0001016835700787,0.38560933706036399,0.35435189346176088
10.783563367742078,1.0001038567375928,0.38562372957621671,0.35290497483370586
10.800177993693271,1.0001037440566753,0.38561949351134039,0.35335970700172226
10.816818218399346,1.0001192200601641,0.38560467242412139,0.35740783951290211
10.83348408130124,1.0001011279156435,0.3856166299663652,0.35549941746321423
10.850175621900647,1.0001095912230513,0.38561018336380659,0.35704309962528669
10.866892879760123,1.0001207476207623,0.3856115709888695,0.35517180632588463
10.88363589450319,1.0001246934179187,0.38560239075804292,0.35738506037698414
10.900404705814381,1.0001292919406559,0.38560808405542973,0.35971117353263082
10.917199353439443,1.0001453004497203,0.38558391759082794,0.36039475569995005
10.934019877185285,1.0001205852296036,0.38559833145276712,0.3600918484983211
10.950866316920196,1.0001059625064099,0.38560422844880088,0.36012644345224487
10.967738712573874,1.0001143639061592,0.38559898365090162,0.36461834522345526
10.984637104137542,1.0001334138259337,0.38557786562973695,0.36506981385328174
11.001561531664054,1.0001150442484852,0.38557658870041844,0.3650720030657979
11.018512035267918,1.0000848815575272,0.38560618613099179,0.36546494060814183
11.035488655125526,1.0001194403653713,0.38558221508605744,0.36496860112277574
11.052491431475136,1.0001277033088101,0.38558531850643485,0.36734595967791961
11.069520404616979,1.0000963726843883,0.38555425473874988,0.36745395687725591
11.086575614913409,1.0001009933498655,0.38555977274155101,0.36659727478969018
11.103657102788958,1.000094031406781,0.38557651305327473,0.36689703981524957
11.120764908730445,1.0000824805786566,0.38557231630828215,0.37002274098479404
11.137899073287075,1.0001074108822334,0.38556587622551897,0.37040303167595567
11.155059637070485,1.000094579742965,0.38556219686334836,0.37366665155602163
11.172246640754965,1.0000830640676659,0.3855551007160482,0.37252871931289633
11.189460125077391,1.0000783283210211,0.38558573819702308,0.37496430870207575
11.206700130837451,1.0000975732926209,0.38555950030681357,0.37197719348415603
11.223966698897684,1.0001089417372291,0.38555816539725452,0.37440277675356981
11.241259870183587,1.000132241662179,0.38554953862756963,0.37504900868319879
11.258579685683719,1.0001074890498256,0.38555354700759492,0.37630667284372521
11.275926186449764,1.0001232643239768,0.38553703752805302,0.37761468770655426
11.293299413596676,1.0000980437707312,0.38555541479015948,0.37527038615770891
11.310699408302792,1.0000934686560126,0.38554937908797265,0.37866191452732778
11.32812621180982,1.0001213327662171,0.38554289169613493,0.3797431612855533
11.345579865423062,1.0001127217458528,0.38553066973438815,0.38148737426845258
11.36306041051145,1.0001215139192912,0.38552297520734813,0.38023763174310687
11.380567888507649,1.0001223008513802,0.38553366700854391,0.38463730345407043
11.398102340908176,1.0000997115797723,0.38551340763975639,0.38633672701869415
11.415663809273434,1.0001104387060706,0.38553350187816743,0.38672146957652842
11.433252335227937,1.0001210142347294,0.38553327962374478,0.38495823645543936
11.450867960460288,1.0001131694756842,0.3855303464999672,0.38586618592000832
11.4685107267233,1.0000894956365312,0.38551576882127409,0.38540214594771527
11.486180675834152,1.0001040293624943,0.38550869666136128,0.38691051586860681
11.503877849674442,1.0001366292136042,0.38549571557505019,0.3888864930194984
11.521602290190293,1.0000903375832417,0.38551587566777534,0.38573629208333671
11.539354039392471,1.0001077671762983,0.38552033035312205,0.39006862339093828
11.55713313935642,1.0001203453479373,0.38550874375741995,0.39239060326004704
11.574939632222495,1.0001107220063907,0.38548839412803426,0.39184771488599779
11.592773560195894,1.0001209883342295,0.38549439006320468,0.39332730541205763
11.610634965546895,1.0001105710547056,0.38549929052487281,0.39228718610590363
11.628523890610882,1.0000840420429387,0.38551392085220926,0.39436906260463189
11.646440377788476,1.0000850666967407,0.38550491666998848,0.39417417123024734
11.664384469545631,1.0000998812685002,0.38547685193043824,0.39469999960283531
11.682356208413697,1.0001130840826609,0.38548577228287045,0.39636770339726723
11.700355636989578,1.0000929257621338,0.38548249419695813,0.39734948547130955
11.718382797935844,1.0001168070046793,0.38545951233342829,0.39875526829154495
11.736437733980726,1.0000977232551507,0.38544430470233065,0.39627847038727992
11.754520487918329,1.0000914982265052,0.38547941206276048,0.40056498607394531
11.772631102608694,1.0001097540065498,0.38546453853479123,0.40108253832639917
11.790769620977885,1.0001270109169083,0.38545559706674626,0.40181553665812686
11.808936086018122,1.0000880857203918,0.38547692209447409,0.40135261965081526
11.827130540787815,1.0000665160174043,0.3854645795532321,0.40345038783843279
11.8453530284118,1.0001092746415949,0.38543046134796971,0.40637248795820824
11.863603592081276,1.0001162611450476,0.3854423407321062,0.40695090542161694
11.881882275054028,1.0000953046611349,0.38543236942538589,0.40703889211766864
11.90018912065449,1.0000991509855257,0.38543362274934057,0.40684338690561361
11.918524172273836,1.0001450044044928,0.38541053929910291,0.40742539488928031
11.93688747337011,1.0001262919658906,0.38543040189423661,0.40948769665186546
11.955279067468281,1.0000987439645161,0.38542987281390118,0.41103662318069212
11.973698998160399,1.0000957299608724,0.38542080836126263,0.41068153227237758
11.992147309105716,1.0000975651845683,0.38541921329634965,0.41027295713592338
12.010624044030678,1.0000665781837448,0.38541758340818244,0.41355687925719309
12.02912924672915,1.0001033879193371,0.38540163731917737,0.41394477134530661
12.047662961062457,1.0001092590685023,0.3854066091414392,0.41212134712441184
12.066225230959509,1.0001057695460316,0.38540845668245793,0.4153986460000425
12.084816100416907,1.0001138987606819,0.38540245175087989,0.41577688149383363
12.103435613499002,1.0001129905744932,0.38541068140728107,0.41686466485958107
12.122083814338076,1.000098381807947,0.38538921977570961,0.41757494838251574
12.140760747134392,1.0001034540436242,0.38539737460453677,0.42060282417608619
12.159466456156315,1.0001004654493915,0.3853628433689274,0.41844164219140367
12.178200985740418,1.0000904372137733,0.38539165178247936,0.4236157408037613
12.196964380291581,1.0001034694385156,0.38538366268152863,0.42181735497926809
12.215756684283118,1.0000953521129259,0.38538292696659615,0.42294046457594447
12.23457794225682,1.0001043109806191,0.3853723427457475,0.42477349306881962
12.253428198823137,1.0000708268948637,0.38537533557405262,0.42298559936619284
12.272307498661284,1.0000806608935533,0.38538447306565615,0.42882017938488559
12.291215886519247,1.0001209129079671,0.38536101133037909,0.42684771924564302
12.31015340721401,1.0000948123295144,0.38536591058582526,0.42802926462415058
12.329120105631555,1.0001002930963232,0.38535456561662029,0.4320014135758683
12.348116026727086,1.0001091385580909,0.38532160425668288,0.43080204899732166
12.367141215525042,1.0000896758879187,0.38533007704345773,0.4295247654807639
12.386195717119209,1.0001101580242224,0.38532879899643485,0.43189670225933696
12.405279576672879,1.0000847647426307,0.38533767208714642,0.43276225251698719
12.424392839418925,1.0000808238670895,0.38532309815203425,0.43113755714048807
12.443535550659906,1.0000999119391911,0.38534555983510993,0.43431247883462021
12.462707755768186,1.0001128879374086,0.38531290390510237,0.4364932242992694
12.481909500186029,1.0001144271768674,0.38534657500303582,0.43498686838879053
12.501140829425735,1.0001006913381325,0.38532460944174546,0.4392820021013506
12.520401789069679,1.0000850864651754,0.38534272717641088,0.44052775330414562
12.539692424770497,1.0000891404160535,0.38533049225071569,0.43911995310765661
12.5590127822512,1.0000940634762325,0.38533055855720688,0.44058962457414452
12.578362907305172,1.0000821027549447,0.38532080925962298,0.44095389520448691
12.597742845796402,1.000118554013752,0.38531869270162711,0.43971418068888113
12.617152643659532,1.0000757548460304,0.38532998829058174,0.44423282922248575
12.636592346899974,1.0000855704328544,0.38534060519743024,0.44215429935535155
12.656062001594037,1.0000922492984914,0.385318834862375,0.44501634977142857
12.675561653888982,1.0001167133022142,0.38529751524010991,0.44644621939196583
12.695091350003198,1.0001032066694671,0.38531212776253215,0.44928088921254528
12.714651136226324,1.0001110941549447,0.38529239325168996,0.44788094693502956
12.734241058919237,1.0000967498153206,0.38531498912914441,0.44861273132787716
12.753861164514314,1.0001224001476587,0.38528246777683778,0.45215629011075009
12.773511499515402,1.0001025077064898,0.38529476318914518,0.45249131380085572
12.793192110498081,1.0001023012982111,0.38529896665362173,0.45116261440150396
12.812903044109651,1.0001534210926626,0.38525689669635166,0.45453939369490115
12.832644347069253,1.0001209658413799,0.38527676007662898,0.45407138928474211
12.852416066168058,1.0000917297405283,0.3852793847403021,0.45788427600444948
12.872218248269304,1.0000966741984547,0.3852883905944729,0.45850119621488972
12.892050940308446,1.0000959219392922,0.38528390681900931,0.45836604159404715
12.911914189293247,1.0000851542699425,0.38528559914285115,0.45809960661505045
12.931808042303897,1.0001100697817227,0.38525852759393853,0.46192664105905834
12.95173254649314,1.0001156650643508,0.38527151960785438,0.45954057211177712
12.971687749086328,1.0000892534833465,0.38526871581490024,0.46081467936244991
12.9916736973816,1.0000846972528876,0.38525269974346771,0.46185608113064092
13.011690438750014,1.0000963387417956,0.38524448893403257,0.46291437652578082
13.031738020635528,1.0001102933310153,0.38523596746152933,0.46826613828641683
13.051816490555266,1.000113358171661,0.38523535927147479,0.46677411754383513
13.071925896099508,1.0001312191546901,0.3852303493088543,0.46784373876299412
13.092066284931919,1.0001166061517399,0.38523884847090151,0.46711555525018156
13.11223770478958,1.0002842977114226,0.38523635944475876,0.4703212858871737
13.132440203483082,1.000122047567823,0.38522922950269345,0.47194966615271028
13.152673828896722,1.000121464334351,0.38523458753835443,0.4726846142766945
13.172938628988572,1.0000975988607679,0.38523616908122527,0.47023956313448423
13.193234651790574,1.0001121352006364,0.3851967186094275,0.47428653656267983
13.213561945408696,1.000106998295172,0.38520674179571052,0.47573188575400849
13.23392055802301,1.0000839696921975,0.38523363721637238,0.47609966621867272
13.254310537887839,1.0001119982873832,0.38521702533304258,0.47583678658008921
13.274731933331816,1.0001271487951595,0.38520212803248022,0.47979428043426253
13.295184792758073,1.000130891703656,0.38520422810549854,0.48000022235932249
13.315669164644303,1.00010231930317,0.38521865713092435,0.4799413569884976
13.336185097542891,1.0001136595882736,0.38520480652793992,0.48057518753127937
13.356732640081047,1.0000931436029141,0.38522175669847436,0.48397990005535263
13.377311840960845,1.000075314969727,0.385196411551115,0.48338787813489148
13.397922748959473,1.0001176295240453,0.38519109286182457,0.48450365876291812
13.41856541292924,1.0001108781900443,0.385204601305843,0.4843348881105527
13.439239881797686,1.000123885933464,0.38517392408793694,0.48824709741042227
13.459946204567775,1.0001283557262524,0.38516759504459064,0.48610062286167022
13.480684430318002,1.0001161659415958,0.38518428371878538,0.48951818089331312
13.501454608202399,1.0001086518289197,0.38517242292570097,0.49177664006325017
13.522256787450807,1.0001315130603321,0.38516075422522661,0.49184873030584697
13.543091017368839,1.0001101161260273,0.38515560230971763,0.4896692229960351
13.563957347338164,1.0001047750030334,0.38515536918969284,0.49247244377073685
13.58485582681649,1.0001375327228763,0.38514348813935084,0.49611306826889745
13.605786505337703,1.0001266201332057,0.385132656835454,0.49707972433949266
13.626749432512042,1.0001364270788899,0.38515257250126833,0.49546887438663134
13.647744658026177,1.0001259368482505,0.38514027857918504,0.50079292873238046
13.668772231643326,1.0001590999995529,0.38511221265906526,0.49924456114652571
13.68983220320338,1.0001290453385236,0.38513761393864093,0.49869708260305146
13.710924622623022,1.0001472531142552,0.38511573212763911,0.49935540400807099
13.732049539895856,1.000127693318837,0.3851358394117963,0.50198282387488291
13.75320700509247,1.0001229883216947,0.38513749300584887,0.50417267234132623
13.774397068360644,1.0001011697929045,0.38511785185919145,0.50570076367285566
13.795619779925405,1.0001134613469389,0.38512874825633414,0.50560941852242536
13.816875190089162,1.000120919707477,0.38511768696661325,0.50815181507358176
13.838163349231843,1.0001359893484072,0.38512660429201595,0.50684663891765069
13.859484307810943,1.000109830097673,0.38513846877353458,0.50947882842214653
13.880838116361781,1.0001313159662242,0.38511349418170998,0.51056976313606128
13.902224825497495,1.0001476908180029,0.38509322812317431,0.51257513994300297
13.923644485909179,1.0001405669314887,0.3850701708890153,0.51664790468510802
13.945097148366068,1.0001184751481911,0.38509223967861411,0.51311364285758287
13.966582863715608,1.0001496985045584,0.385088466589254,0.51435816934728251
13.988101682883586,1.0001454969135188,0.38507898574139099,0.51646688579594269
14.009653656874262,1.0001352831534773,0.38506700342654415,0.5202864735411552
14.031238836770433,1.0001354928753967,0.38508313006246686,0.51937093048877614
14.052857273733689,1.0001326448420091,0.38509353981597427,0.5188221845999621
14.074509019004358,1.0001188040955071,0.38508535069572852,0.52170635877011762
14.096194123901766,1.0001208938760944,0.38506848285747575,0.52461199274660686
14.117912639824294,1.0001066291163654,0.38509112035598525,0.5255421630157926
14.139664618249521,1.0001646488246769,0.3850514768762231,0.52563318064125752
14.161450110734345,1.0001099995706169,0.38508107731238622,0.52578392717943956
14.183269168915047,1.0001180729825583,0.38506510837687186,0.52442904735406159
14.205121844507552,1.0001210008445054,0.38505680181644547,0.52841628828183929
14.227008189307423,1.0001274172723325,0.38503671912859522,0.52904631486099873
14.248928255189991,1.0000879488734438,0.38505104498185577,0.53356548725778197
14.270882094110569,1.000121984998172,0.38505893517476747,0.53174197253544975
14.292869758104493,1.0001196382631041,0.38504626924709318,0.53107024475397679
14.314891299287279,1.0001409962674306,0.38503046503497607,0.53484338354967775
14.336946769854748,1.0001147573658349,0.38503062399245996,0.53630653768085779
14.359036222083089,1.0001246152912333,0.38504438407828012,0.53862418040439763
14.381159708329132,1.0001342988854116,0.38503680581296218,0.53641188761331193
14.403317281030276,1.0001221065276469,0.38502395912271042,0.53909552919478898
14.425508992704767,1.0001295293837509,0.38500006927692049,0.53993376507553847
14.44773489595176,1.0000933362559834,0.38501498250670807,0.54163936172626137
14.469995043451442,1.0001555386840499,0.38501098722545968,0.54337253395721774
14.492289487965188,1.000123809844859,0.38502683917978597,0.54349521486410879
14.51461828233562,1.0001285136077758,0.38500435312126197,0.54450881586375033
14.5369814794868,1.0001315660735111,0.38500238605731091,0.54593999707854124
14.559379132424382,1.0001303499744829,0.38502375623036139,0.54758815853777776
14.581811294235601,1.0001422202920358,0.3849824798426778,0.55404020703515755
14.604278018089538,1.0001563334575856,0.38498031571271402,0.54921986638921538
14.626779357237181,1.0001897089531642,0.38496191672054814,0.55268396225675076
14.649315365011564,1.0001255867285053,0.38500792311355519,0.55105213957328658
14.671886094827912,1.0001233063807971,0.3849890639231946,0.55449635704195543
14.694491600183683,1.0001184358418493,0.38498250108807125,0.55562212397195765
14.717131934658868,1.0001163699023141,0.38497409829541435,0.55817967780187416
14.739807151915906,1.0001222623416075,0.38497868890138193,0.55717436318565206
14.762517305699975,1.0001083599028397,0.3849900701149907,0.56038654064509785
14.785262449839045,1.0001411100475988,0.38497178428764539,0.56062882634164168
