#Digilent WaveForms Network Analyzer - Bode
#Device Name: Discovery2
#Serial Number: SN:210321A18F9B
#Date Time: 2017-02-20 12:38::18.586

Frequency (Hz),Channel 1 Magnitude (V),Channel 2 Magnitude (V)
10.000000000000012,0.61572072668645816,0.38376033883262195
10.015407361541453,0.61571680657976224,0.38377793002629307
10.030838461761862,0.61570824274000246,0.38376903613226954
10.046293337236277,0.61572615580858348,0.38373864424236781
10.061772024596104,0.61573381181658693,0.38373048375189245
10.077274560529155,0.61575557930858682,0.38374129932118117
10.092800981779789,0.61575138490645009,0.38373322204991395
10.108351325149009,0.6157482663776972,0.38370022200745424
10.123925627494456,0.61576397235854907,0.38373354179664287
10.139523925730614,0.61578217700946103,0.38371124351420388
10.155146256828788,0.61576696585011059,0.38372764023090167
10.170792657817303,0.6157490926389938,0.38371813694766582
10.186463165781518,0.6157614488382982,0.38370973717501228
10.202157817863894,0.6157504729208938,0.38371247239891143
10.217876651264161,0.615768232515712,0.38370320323348994
10.233619703239349,0.61578247364565053,0.3837115381015278
10.249387011103892,0.61578039362996273,0.38371175058526336
10.265178612229715,0.61579846547173289,0.38370561051811303
10.280994544046324,0.6157737566549234,0.38368271449008495
10.296834844040905,0.61579849572960543,0.38369418991445653
10.312699549758369,0.61579656347708345,0.38366728906261627
10.328588698801509,0.61577662064960592,0.38366775798684699
10.344502328831037,0.61580552272577771,0.38365306722899017
10.360440477565694,0.61578467479684873,0.38367732126230891
10.376403182782349,0.61579710602415272,0.38365626540289105
10.392390482316026,0.61579074869184036,0.38366570599625388
10.408402414060115,0.61578641366790909,0.3836461297468432
10.424439015966348,0.61581270907668417,0.38364401933054659
10.440500326044919,0.61583081075605151,0.38365444653588066
10.456586382364609,0.61581927767594002,0.38363737343161014
10.472697223052849,0.61585490788306296,0.38365266799748221
10.488832886295812,0.61584227590937635,0.38364415758754467
10.504993410338514,0.61586340916257354,0.38366505890401958
10.521178833484859,0.61582503834213365,0.38366124115132932
10.537389194097825,0.61583675883578481,0.38361813823635588
10.553624530599469,0.61582589361567541,0.38363974659296479
10.569884881471026,0.61584942448338575,0.38363282944739474
10.586170285253049,0.61585511446193353,0.38363289662879602
10.602480780545466,0.61585334909530731,0.38363820107303498
10.618816406007671,0.61584717332417904,0.38364386096867237
10.635177200358626,0.61585060973029615,0.38362804714067583
10.651563202376947,0.61584422692655749,0.38362330903198216
10.667974450901012,0.61586956951551486,0.38361821751225372
10.684410984829,0.61584698607462873,0.3836093700031849
10.700872843119061,0.61587749077693921,0.38363559179622503
10.717360064789354,0.61586388606063402,0.38361104662469986
10.733872688918154,0.61587472904248641,0.38360234785840802
10.750410754643962,0.6158623958428362,0.38359927936729554
10.766974301165531,0.61587438539665806,0.38358510599603329
10.783563367742078,0.61587840618591871,0.3835882285632855
10.800177993693271,0.61587643069315356,0.38357706909702699
10.816818218399346,0.61587721896443526,0.3835813707531549
10.83348408130124,0.61585444493542474,0.38357145703827744
10.850175621900647,0.61589043635887308,0.38357343137921002
10.866892879760123,0.61588420317389814,0.38356508963101954
10.88363589450319,0.61587189682641574,0.38354932121374796
10.900404705814381,0.61588601628747464,0.38355435925745907
10.917199353439443,0.61590676710507486,0.38356052049118655
10.934019877185285,0.61590001593343291,0.38355738082005714
10.950866316920196,0.61589941305943696,0.38356684643045125
10.967738712573874,0.61589132847034278,0.38355162197265807
10.984637104137542,0.61591412655568401,0.38354830457925193
11.001561531664054,0.61590578534104434,0.38355617388426327
11.018512035267918,0.61590278095492434,0.38354969129398986
11.035488655125526,0.61588400324388159,0.38354261482757313
11.052491431475136,0.61587881875280959,0.38354855665526133
11.069520404616979,0.61588335312552478,0.38355680486588983
11.086575614913409,0.61590602093741986,0.38353746728005317
11.103657102788958,0.61591013001861816,0.38354898017252687
11.120764908730445,0.61590315941711349,0.38353893736743955
11.137899073287075,0.61592102225261414,0.38353469589986894
11.155059637070485,0.6159263174925893,0.38352307129038449
11.172246640754965,0.61591061936067981,0.38351821471390968
11.189460125077391,0.61593597796593913,0.38351244860462086
11.206700130837451,0.61593305207772009,0.38351427522702736
11.223966698897684,0.61592748808637821,0.38353980397957899
11.241259870183587,0.61594290090932258,0.38351798114323815
11.258579685683719,0.61592059383463782,0.38351574911126313
11.275926186449764,0.61593524074395911,0.38349864941314377
11.293299413596676,0.61594291415341029,0.38349324187331668
11.310699408302792,0.6159270247415739,0.38350705257694612
11.32812621180982,0.61596276862022714,0.38349598871703822
11.345579865423062,0.61592743722527432,0.38349160295582452
11.36306041051145,0.61597091484329758,0.383489651031371
11.380567888507649,0.6159487373231769,0.38350664526455325
11.398102340908176,0.61595169356732782,0.38350918509356341
11.415663809273434,0.61596474996121542,0.38347599485412348
11.433252335227937,0.61596627543928339,0.38347891321814093
11.450867960460288,0.61597146137311709,0.38348266639109146
11.4685107267233,0.61598231721256169,0.38347775462995443
11.486180675834152,0.61596230668964258,0.38345559050531081
11.503877849674442,0.61597710700099295,0.3834715868769808
11.521602290190293,0.61597332916931935,0.3834752234392565
11.539354039392471,0.61595211336496791,0.3834320764174175
11.55713313935642,0.61597420306296768,0.383456296179288
11.574939632222495,0.61599201008224569,0.38343444944787158
11.592773560195894,0.61599069296094355,0.38345091238231377
11.610634965546895,0.61597644835108367,0.38344448720868729
11.628523890610882,0.61598003100697507,0.3834483194141034
11.646440377788476,0.61600672314729943,0.38345736315090989
11.664384469545631,0.61599388214511708,0.38343837285256405
11.682356208413697,0.61599559293934958,0.38345241314224637
11.700355636989578,0.61599733428302306,0.38342368470815219
11.718382797935844,0.61600700258330454,0.3834368819250949
11.736437733980726,0.61599236479071384,0.38342334270540046
11.754520487918329,0.61601133357017246,0.38341572463044377
11.772631102608694,0.61601937530148276,0.38342292626632762
11.790769620977885,0.61603824658666029,0.38341532571189835
11.808936086018122,0.61603527935559566,0.38341898706647359
11.827130540787815,0.61604320700785309,0.38340729075867003
11.8453530284118,0.61600360696255629,0.38342191698540151
11.863603592081276,0.61606037187616813,0.38341129774475396
11.881882275054028,0.61603957460016678,0.3833936001917938
11.90018912065449,0.61605837366596161,0.38339983037319048
11.918524172273836,0.6160605465386052,0.38338943677264942
11.93688747337011,0.61604556833249213,0.38337565203489982
11.955279067468281,0.6160651260237956,0.38339688612447709
11.973698998160399,0.61606039200260054,0.3833896169873478
11.992147309105716,0.61606771476127231,0.38339048057130393
12.010624044030678,0.61607103554823761,0.3833701776936505
12.02912924672915,0.6160740207007207,0.38339897601582751
12.047662961062457,0.61608152575108688,0.38334395496496065
12.066225230959509,0.61608760134495,0.38335402908908239
12.084816100416907,0.61607370246523574,0.38336134081399498
12.103435613499002,0.61608448056787668,0.38336042765304501
12.122083814338076,0.61608152579128939,0.38335021509346645
12.140760747134392,0.61609349289906845,0.38334788945085374
12.159466456156315,0.6160850836913947,0.38335438785525866
12.178200985740418,0.61610190637418649,0.38333756284711595
12.196964380291581,0.6161205377256721,0.38334738040687572
12.215756684283118,0.61610129464230046,0.38333451030663829
12.23457794225682,0.61611950869263565,0.38333891513174084
12.253428198823137,0.61613373283408779,0.38335300991344956
12.272307498661284,0.61612814324750909,0.38333691514416979
12.291215886519247,0.61614039563806833,0.38333617339245829
12.31015340721401,0.61614075635136656,0.38334030290170334
12.329120105631555,0.61611363736102664,0.38333453684711039
12.348116026727086,0.61612811228439668,0.38330738734369119
12.367141215525042,0.61614264990873402,0.38331719404530723
12.386195717119209,0.61615354448821158,0.38330472150740369
12.405279576672879,0.6161408264023065,0.38329606166356606
12.424392839418925,0.61610791477615956,0.38327191175195319
12.443535550659906,0.61615461925734405,0.38330219441379348
12.462707755768186,0.61615585816221574,0.38329448190087184
12.481909500186029,0.61616584499695826,0.38329564022280377
12.501140829425735,0.61615990742911708,0.38330315320864322
12.520401789069679,0.61617732407186776,0.38329752894695029
12.539692424770497,0.61616220184980619,0.38329971103349569
12.5590127822512,0.61617392542651939,0.38328960217285601
12.578362907305172,0.61617322012690945,0.3832828529070576
12.597742845796402,0.61616853435591101,0.38328240183255613
12.617152643659532,0.61618599682336506,0.38328416852422553
12.636592346899974,0.61620012397622781,0.38328284363991522
12.656062001594037,0.61618471714257395,0.38326639991509404
12.675561653888982,0.61619155045486451,0.38326882774626392
12.695091350003198,0.61619501534689847,0.38329097355613539
12.714651136226324,0.61619460946009408,0.38323898860528077
12.734241058919237,0.61621508448637263,0.38325290581732857
12.753861164514314,0.61621939308580942,0.38325622094406941
12.773511499515402,0.61621036161686671,0.38326063129731036
12.793192110498081,0.61622028551127417,0.38323916244576345
12.812903044109651,0.61621345264164773,0.38323314542885473
12.832644347069253,0.61619897809359214,0.38324835350505698
12.852416066168058,0.61622246149821136,0.38323858218612561
12.872218248269304,0.61623456324034354,0.38325415508231758
12.892050940308446,0.6162526481956615,0.38323789521085944
12.911914189293247,0.61622813649946662,0.38322947345837294
12.931808042303897,0.61625293095968181,0.38322699185444042
12.95173254649314,0.61625313817711325,0.38323371877715989
12.971687749086328,0.61623292232454585,0.38322487263640453
12.9916736973816,0.61624622783293925,0.3832279956143711
13.011690438750014,0.61625745932420339,0.38319917917175444
13.031738020635528,0.6162830056127353,0.38320827055244039
13.051816490555266,0.61627236477072977,0.38321956141462932
13.071925896099508,0.6162496098054363,0.38321034563914452
13.092066284931919,0.61628014977930934,0.38318702676408267
13.11223770478958,0.61637318188385026,0.38325489763178477
13.132440203483082,0.6162851648065284,0.38318885483753268
13.152673828896722,0.61628033570478413,0.38317860943414916
13.172938628988572,0.61626410428922973,0.38319037164781766
13.193234651790574,0.61628454078076433,0.38316671744904124
13.213561945408696,0.61629129971267738,0.38319344515610521
13.23392055802301,0.61629361803167693,0.38316419153307091
13.254310537887839,0.61628755099287902,0.38316081178739736
13.274731933331816,0.61629152518524799,0.38317086321327348
13.295184792758073,0.61628761762731987,0.38315056251818502
13.315669164644303,0.61631085560095344,0.38315876238232577
13.336185097542891,0.61629345637043642,0.38314866489872473
13.356732640081047,0.61631279171779196,0.38315386611723828
13.377311840960845,0.61629418927046065,0.3831341847517446
13.397922748959473,0.6163100949489021,0.38313265363857807
13.41856541292924,0.61632296932909791,0.38312989372957246
13.439239881797686,0.61631098886110169,0.38315344691184722
13.459946204567775,0.61632859117302075,0.38314246671467189
13.480684430318002,0.61631984250287641,0.38313983686340786
13.501454608202399,0.61633256556119853,0.38314496647044416
13.522256787450807,0.61633562453278723,0.38312113143043419
13.543091017368839,0.61630750593734718,0.38312380493861292
13.563957347338164,0.61634328404255767,0.38310368902136299
13.58485582681649,0.61633976459205009,0.38313022854019285
13.605786505337703,0.61633042080563549,0.38311112847860285
13.626749432512042,0.61636151579236453,0.38308973919287592
13.647744658026177,0.61636275189443179,0.38312332292998175
13.668772231643326,0.61636686898238269,0.38311803041132914
13.68983220320338,0.61636903719244029,0.38309805566015132
13.710924622623022,0.61634663394175915,0.38309790409116362
13.732049539895856,0.6163891511081333,0.38310029445007898
13.75320700509247,0.6163783707160293,0.3830710282935626
13.774397068360644,0.61639234308707647,0.38310685568710551
13.795619779925405,0.61635211840950777,0.38308551838124649
13.816875190089162,0.61633809198236478,0.38308031385354796
13.838163349231843,0.61639298462733028,0.3830739907735633
13.859484307810943,0.61638123114618837,0.38309194034577798
13.880838116361781,0.61636747850491236,0.38306831129904245
13.902224825497495,0.61637419604594323,0.38308754351172231
13.923644485909179,0.61637957976792046,0.3830697474961316
13.945097148366068,0.61639839301807431,0.38304201128721399
13.966582863715608,0.61642401034781713,0.38304696722141607
13.988101682883586,0.6164115220225671,0.3830553364092909
14.009653656874262,0.61640725984455413,0.38306069229021739
14.031238836770433,0.61642396404680511,0.38304631108198051
14.052857273733689,0.61643984443511934,0.38304822358045254
14.074509019004358,0.61644357858620158,0.38301540946482893
14.096194123901766,0.61644283469990291,0.38301645160807773
14.117912639824294,0.61643843511701246,0.3830265777413166
14.139664618249521,0.61644919199669113,0.3830132005824613
14.161450110734345,0.61644590048736092,0.3830218053440051
14.183269168915047,0.61644884438223879,0.38301642987816442
14.205121844507552,0.61645550969823881,0.38301505687334303
14.227008189307423,0.61646299270566229,0.38302909446405559
14.248928255189991,0.61645946265977369,0.38301093153067445
14.270882094110569,0.61647591269863833,0.3830093862449247
14.292869758104493,0.61647170608550816,0.3830070032242629
14.314891299287279,0.61647444023891962,0.38299934404339331
14.336946769854748,0.61646794261373594,0.38301857324674032
14.359036222083089,0.61648310832471021,0.38298061989960902
14.381159708329132,0.61648699895696524,0.38299060235969062
14.403317281030276,0.61647523706295004,0.3829950953697277
14.425508992704767,0.61649212007469056,0.38298275059047421
14.44773489595176,0.61649971407891091,0.38298667827061272
14.469995043451442,0.61649792419168514,0.38296822665443392
14.492289487965188,0.61651236984134095,0.38298849899072129
14.51461828233562,0.61652119252421234,0.38296774366426445
14.5369814794868,0.61653330950552643,0.3829824909679001
14.559379132424382,0.61650947020945635,0.38297408058453125
14.581811294235601,0.61651598291964471,0.38295190078381386
14.604278018089538,0.61651264333534628,0.38293223372357454
14.626779357237181,0.61654222551785032,0.3829860900695003
14.649315365011564,0.61652709903139258,0.38295264579106536
14.671886094827912,0.61653346123261932,0.38295262390218077
14.694491600183683,0.61655531642994921,0.38295031397694002
14.717131934658868,0.61653436605277001,0.3829428006214064
14.739807151915906,0.61653197260646486,0.38293448930468871
14.762517305699975,0.61654307262130681,0.38293227251651207
14.785262449839045,0.61657268631847406,0.38296394318066312
14.808042638244022,0.61655562490496141,0.38293854606271738
14.830857924908887,0.61653946847367824,0.38291177163020779
14.853708363910771,0.6165555645575389,0.3829249197805723
14.876594009410143,0.61656530301031676,0.3829137321666789
14.899514915650983,0.61655889041640077,0.38290997683138916
14.922471136960734,0.61656279368289912,0.38290772132109741
14.945462727750622,0.61657938647423782,0.38289265644396381
14.968489742515683,0.61657046947365723,0.38288712574812372
14.991552235834911,0.61657283299015797,0.3828934322688044
15.014650262371417,0.61659959396103237,0.38289347865235968
15.037783876872483,0.61660332608927404,0.38286957905843905
15.06095313416977,0.61659707608523584,0.38288220859236566
15.084158089179473,0.61657687147804308,0.38286039354765877
15.107398796902297,0.61659319243523447,0.3828829397495922
15.130675312423756,0.61657180855474547,0.38285716463146152
15.153987690914223,0.61659814784282552,0.38286341035583005
15.177335987629071,0.6166100368489108,0.3828536102212734
15.20072025790882,0.61661271598194722,0.38285057356101337
15.224140557179194,0.61662514381030609,0.3828606208439379
15.247596940951427,0.61661259652189904,0.38282826333358067
15.271089464822168,0.61665309552713832,0.38285018855759334
15.294618184473789,0.61664316470632263,0.38282781656015374
15.31818315567444,0.61664324644600843,0.38284589734059382
15.341784434278189,0.61662892085796273,0.38282894314606042
15.365422076225181,0.61661909602870157,0.38282502826077797
15.389096137541705,0.61664510450324228,0.38281128735387987
15.4128066743404,0.61665143420447133,0.38281267257210566
15.436553742820406,0.61665074206030768,0.38281062989264159
15.460337399267358,0.61665507317217605,0.38282315038332421
15.484157700053677,0.61667238697903415,0.38282024891555888
15.508014701638619,0.61667118520080444,0.3828135165570164
15.531908460568431,0.61668198334409163,0.38279498924185462
15.555839033476502,0.616659061729113,0.38279574754938694
15.579806477083425,0.6166850280812336,0.38280110910068493
15.603810848197238,0.61669683073861725,0.3827945798832561
15.627852203713481,0.61671180473702902,0.38279486292164522
15.651930600615364,0.61670200440320333,0.38279079824681073
15.676046095973886,0.61670448734252137,0.38279637277908413
15.700198746947983,0.61670069583305309,0.3827729993563867
15.72438861078467,0.6167065189966332,0.38279282368139461
15.748615744819118,0.61671334399060407,0.38276201143163907
15.772880206474868,0.61672249103673227,0.38278306823004515
15.797182053263985,0.61674174803451709,0.38276186603733825
15.821521342787046,0.61673814205244104,0.38275994090684107
15.845898132733456,0.61673072958106867,0.38276276726398384
15.870312480881427,0.61674782888374113,0.38277759537875533
15.894764445098287,0.61673396285286519,0.38273282869411918
15.919254083340471,0.61675734221330425,0.38275690645540922
15.943781453653678,0.61675128625017062,0.38275358659675379
15.968346614173081,0.616747359399618,0.38272712690900368
15.992949623123456,0.61676870152328567,0.38273660932721243
16.01759053881921,0.61674729646727289,0.38273863152375459
16.042269419664645,0.61674672608285219,0.38271487892437922
16.066986324154044,0.61676204943236046,0.38272054257266153
16.091741310871807,0.61676645693479282,0.38272262987947681
16.116534438492618,0.61678261425572489,0.38273506255354994
16.141365765781497,0.61679736199266466,0.3827104069693264
16.166235351594118,0.61678117181612468,0.3827244750779355
16.191143254876717,0.6168017186473036,0.3827110481446066
16.216089534666434,0.61681836033168813,0.38270920416846099
16.241074250091334,0.61682672865466726,0.38272791481872764
16.266097460370588,0.61680520314115594,0.3827097458957347
16.291159224814631,0.61681940143770575,0.38268438029904017
16.316259602825223,0.61682734385744276,0.38269615636262116
16.341398653895677,0.61680985833500235,0.38266330552694133
16.366576437611034,0.61682147636952223,0.38267464435983106
16.391793013648027,0.61684033649915515,0.38268332465543942
16.4170484417754,0.61684037121225255,0.38267319776278508
16.442342781853977,0.61681155656236586,0.3826722118231185
16.467676093836811,0.6168363914385746,0.38265183489950194
16.493048437769335,0.61680163635270457,0.38266810905390475
16.51845987378946,0.61683399552956475,0.38264147708468182
16.543910462127783,0.61680227280694322,0.38263813362424959
16.56940026310771,0.61685206130270775,0.38265212870197696
16.594929337145565,0.61685561311932069,0.38265505934602573
16.620497744750772,0.61683450170453535,0.38262138530723971
16.64610554652598,0.6168442819949691,0.38262347047639883
16.67175280316723,0.61687148775678602,0.38261153992319952
16.697439575464021,0.61686678300084552,0.38262655584742727
16.723165924299558,0.61688059907627391,0.38263831703349027
16.748931910650896,0.61689995519215335,0.38260854775074127
16.774737595588935,0.61689104343419965,0.3826038007822441
