#Digilent WaveForms Network Analyzer - Bode
#Device Name: Discovery2
#Serial Number: SN:210321A18F9B
#Date Time: 2017-02-20 12:14::40.754

Frequency (Hz),Channel 1 Magnitude (V),Channel 2 Magnitude (V)
10.000000000000012,0.55904380423497513,0.44043165372742871
10.015407361541453,0.55903682634370566,0.44044979844096227
10.030838461761862,0.5590534305795527,0.4404447622670935
10.046293337236277,0.55903146338797294,0.44043364157329395
10.061772024596104,0.55905820193435296,0.44044068047016011
10.077274560529155,0.55903948350523047,0.44040458852143605
10.092800981779789,0.55905941357976274,0.44044239271742891
10.108351325149009,0.55905662706754333,0.44043130362035005
10.123925627494456,0.55908250022770878,0.44043191989499308
10.139523925730614,0.55906838508190704,0.44043798420017732
10.155146256828788,0.55905825978263923,0.4404370612599563
10.170792657817303,0.55907803858575122,0.4404087788042032
10.186463165781518,0.55907238375442825,0.4404395976796926
10.202157817863894,0.55908382240980581,0.4404060054345173
10.217876651264161,0.55906650186863216,0.44041222393759244
10.233619703239349,0.55909281975604741,0.44040111773627788
10.249387011103892,0.55908698667954893,0.44039913512092366
10.265178612229715,0.55909321055797145,0.4404123335601498
10.280994544046324,0.55909625444897237,0.44039458294523981
10.296834844040905,0.55908769703685091,0.44038584606332054
10.312699549758369,0.55908367967607298,0.44039939401951905
10.328588698801509,0.55909843785430691,0.44036318728517615
10.344502328831037,0.55909456361144072,0.44036552155385716
10.360440477565694,0.55910717217866768,0.44037709981270595
10.376403182782349,0.55910033748095977,0.44038106521547743
10.392390482316026,0.55910241826649476,0.44036784067426182
10.408402414060115,0.55911757308256438,0.44035052536888208
10.424439015966348,0.55911297327975162,0.44036195833144381
10.440500326044919,0.55914146620544236,0.4403702992140282
10.456586382364609,0.55912824920691118,0.44032925068213713
10.472697223052849,0.55913394623139911,0.44035143184764752
10.488832886295812,0.55911802404722755,0.44035792562535192
10.504993410338514,0.55913088139014033,0.44033493939326795
10.521178833484859,0.55914545310250496,0.44035038684225514
10.537389194097825,0.55913651747040105,0.44032691844671379
10.553624530599469,0.55913722969916069,0.44032931231150196
10.569884881471026,0.55904716227481432,0.4404312335040767
10.586170285253049,0.55853828809635975,0.44093822268884303
10.602480780545466,0.5590472202903084,0.44042489367115267
10.618816406007671,0.55902267596588928,0.44048201670725473
10.635177200358626,0.55901395265195386,0.44046869840686442
10.651563202376947,0.55904321997981599,0.44046307025378179
10.667974450901012,0.55904227231462378,0.4404329686072318
10.684410984829,0.55904014383860401,0.44044139600817606
10.700872843119061,0.55903602514880057,0.44042722319377908
10.717360064789354,0.55907514545963899,0.44042193549468889
10.733872688918154,0.55909039360427637,0.44040526549667186
10.750410754643962,0.5590978662263083,0.44038053253101866
10.766974301165531,0.55908861988741965,0.44037649526767142
10.783563367742078,0.55911431093253672,0.44036200349346566
10.800177993693271,0.55911175767556209,0.44035015019148083
10.816818218399346,0.55913512637166418,0.44035245637822873
10.83348408130124,0.55913674006733916,0.44034918773509663
10.850175621900647,0.55913162478742395,0.44036304928442294
10.866892879760123,0.55914705355013006,0.44034812103901821
10.88363589450319,0.55912954393271186,0.44032665873459914
10.900404705814381,0.5591476691626871,0.44031062980228497
10.917199353439443,0.55915234418175774,0.4402933172031433
10.934019877185285,0.55913972219759567,0.44032377717487448
10.950866316920196,0.55916867513119017,0.44029241934230595
10.967738712573874,0.55915410874808102,0.44027788475142737
10.984637104137542,0.55915745012905504,0.4402951564322965
11.001561531664054,0.55917429003031938,0.4402696398222759
11.018512035267918,0.55918627799107112,0.44027816088521554
11.035488655125526,0.55920643554246796,0.44025867785954648
11.052491431475136,0.55921261637062314,0.44024582733735296
11.069520404616979,0.55920810157920353,0.44025703182116854
11.086575614913409,0.55923068438652124,0.44027468704406225
11.103657102788958,0.55922679732484537,0.44024336117691232
11.120764908730445,0.55922880447793,0.44023252230064097
11.137899073287075,0.55923499504241236,0.44023470818972982
11.155059637070485,0.55925392705839339,0.4402331461819517
11.172246640754965,0.55925127529456464,0.44024314459030295
11.189460125077391,0.55926183652232131,0.44022221764947528
11.206700130837451,0.5592501282315705,0.44022796793370622
11.223966698897684,0.55925598169556467,0.44021545481344088
11.241259870183587,0.55926519060026014,0.44025373342120605
11.258579685683719,0.55928613819545181,0.44022643852368049
11.275926186449764,0.55924631052182294,0.44021990719074755
11.293299413596676,0.55926736777567276,0.44019609328824899
11.310699408302792,0.55927725271758411,0.44021413739633369
11.32812621180982,0.55925859162741631,0.44021441117786564
11.345579865423062,0.55928596406832731,0.44021400215353518
11.36306041051145,0.55927251821401092,0.44020199565380053
11.380567888507649,0.55929842102859029,0.4402168399627851
11.398102340908176,0.55929824469090761,0.44021950153202888
11.415663809273434,0.55931078391092859,0.44018320605372729
11.433252335227937,0.55931219561442946,0.44018714001777859
11.450867960460288,0.55929691610097421,0.44018462774884765
11.4685107267233,0.55931951991041551,0.44017261120693074
11.486180675834152,0.5593191676573781,0.44016395896311267
11.503877849674442,0.55930990678404091,0.44015218351416874
11.521602290190293,0.55931561664842266,0.44015366411015244
11.539354039392471,0.55933601419952517,0.44015099980631339
11.55713313935642,0.55934079825649541,0.44017391278222312
11.574939632222495,0.55933390145473039,0.44014574255080757
11.592773560195894,0.55935831312895701,0.44016922021227989
11.610634965546895,0.55936575143542266,0.44014826027766507
11.628523890610882,0.55933921176983548,0.44014269822202706
11.646440377788476,0.55937073033805274,0.44014380291309413
11.664384469545631,0.55936979493512762,0.44013642136279196
11.682356208413697,0.55935964265889149,0.44012999289606808
11.700355636989578,0.55937285799484959,0.4401452135465741
11.718382797935844,0.55937680469840423,0.44013432390238144
11.736437733980726,0.55936366939543802,0.44010223586186303
11.754520487918329,0.55937922119333083,0.44010661208696999
11.772631102608694,0.55935334335272102,0.44011321130225967
11.790769620977885,0.55938570046021918,0.4400954035223329
11.808936086018122,0.55939046387202973,0.44011706994677291
11.827130540787815,0.5593718611512134,0.44010818896738357
11.8453530284118,0.55937852584254044,0.44010562006781778
11.863603592081276,0.55941245999435163,0.44009306762037231
11.881882275054028,0.55940135812930813,0.44008454839637295
11.90018912065449,0.55940860129412373,0.44006941336075062
11.918524172273836,0.55938816615094311,0.44006602330799638
11.93688747337011,0.5593861753206657,0.44008603626740717
11.955279067468281,0.55940688035446251,0.44007036460323384
11.973698998160399,0.55942751950741532,0.44007069903655682
11.992147309105716,0.5594264101720029,0.44006997007776877
12.010624044030678,0.55945187776155336,0.44004514038069309
12.02912924672915,0.55943415311527123,0.44005175256687484
12.047662961062457,0.55943596950657126,0.44004146200603445
12.066225230959509,0.55945271138359853,0.44006095877411555
12.084816100416907,0.55942919920806722,0.44004502794268402
12.103435613499002,0.55942236795624789,0.44003536525528486
12.122083814338076,0.55948553240874543,0.44003370800526342
12.140760747134392,0.55946842637664851,0.44001604647743697
12.159466456156315,0.55946154953805105,0.44001617913733443
12.178200985740418,0.5594810413698208,0.44001769981186045
12.196964380291581,0.55947216861040328,0.43999897283958062
12.215756684283118,0.55947580314307588,0.44000638728201003
12.23457794225682,0.5594732213139052,0.44001434711800269
12.253428198823137,0.55948794591331286,0.44002470615711931
12.272307498661284,0.55949543718494044,0.44002028865122328
12.291215886519247,0.55949896826536849,0.44001009703730959
12.31015340721401,0.55951133872093317,0.43999223669550236
12.329120105631555,0.55948584356826836,0.44000870551122362
12.348116026727086,0.55950219097665954,0.4399694110153427
12.367141215525042,0.55952096734602319,0.4399900721342952
12.386195717119209,0.55950949611645073,0.43996143105626712
12.405279576672879,0.5595097937468112,0.43997659764469493
12.424392839418925,0.5595142488221907,0.43995996635943418
12.443535550659906,0.55950924200397634,0.439953392307187
12.462707755768186,0.55951717114549404,0.4399458526419609
12.481909500186029,0.55951243682096197,0.43995434067671552
12.501140829425735,0.55950450395315043,0.43993589901853847
12.520401789069679,0.55952978757301874,0.43992581772641542
12.539692424770497,0.55953219787271202,0.43991906305697653
12.5590127822512,0.55955747332720085,0.43994853951933605
12.578362907305172,0.55954810239814734,0.43993219873439138
12.597742845796402,0.55957293488380366,0.43993086417947619
12.617152643659532,0.55956269434216999,0.43993091760643277
12.636592346899974,0.55956172951289518,0.43989453013579205
12.656062001594037,0.55958173367840114,0.43991386322866932
12.675561653888982,0.55957949953410857,0.43990141880850819
12.695091350003198,0.55956640915629674,0.43990234242523368
12.714651136226324,0.55957213463481437,0.43990614771961628
12.734241058919237,0.55960174413134134,0.43991344837038376
12.753861164514314,0.55959100417228913,0.43991771570138605
12.773511499515402,0.55960226358236642,0.43989096057689481
12.793192110498081,0.55960063605299804,0.43986557971051821
12.812903044109651,0.55959673845410984,0.43987382327522628
12.832644347069253,0.55957892557147371,0.43987891401212681
12.852416066168058,0.55961212893018952,0.43986033643530814
12.872218248269304,0.55960507937533055,0.4398493283305796
12.892050940308446,0.55962369834712666,0.4398611688694759
12.911914189293247,0.55963883383889723,0.43985792639630927
12.931808042303897,0.55964470003330768,0.43986163509998233
12.95173254649314,0.55964391540926961,0.43986618169339564
12.971687749086328,0.55964888564627602,0.43984114667794461
12.9916736973816,0.55964676034877148,0.4398648530854441
13.011690438750014,0.55966356673420825,0.4398329726932661
13.031738020635528,0.55965880204889384,0.43983566053624978
13.051816490555266,0.55966406553162074,0.43983629960896659
13.071925896099508,0.5596777749531574,0.43981577738399846
13.092066284931919,0.55967690873071441,0.43981072469988808
13.11223770478958,0.55975970224944527,0.43989452950723951
13.132440203483082,0.55967509580944785,0.43982352318146278
13.152673828896722,0.55968538439827498,0.43982072640851377
13.172938628988572,0.55969054437099708,0.43981083205206645
13.193234651790574,0.55969292824483763,0.43981740942411596
13.213561945408696,0.5597034679451296,0.43977209689714403
13.23392055802301,0.55970343425479996,0.43979473618023157
13.254310537887839,0.5596987294885053,0.43979268480515288
13.274731933331816,0.5597059526329482,0.43975893503412927
13.295184792758073,0.55969872022663336,0.43977602919416187
13.315669164644303,0.55970543247605309,0.43979375138172833
13.336185097542891,0.55971629316393468,0.43975260858369164
13.356732640081047,0.55972554411788034,0.43975686537870112
13.377311840960845,0.55973251158114601,0.43974269190387372
13.397922748959473,0.55972863416379848,0.43975416484274887
13.41856541292924,0.55975454882671494,0.43975867385377504
13.439239881797686,0.55975259067679295,0.4397491308991453
13.459946204567775,0.55975650598001259,0.43974186322800912
13.480684430318002,0.55975805762518738,0.43973296470905426
13.501454608202399,0.55975991667890401,0.43974713500650425
13.522256787450807,0.55976507993636637,0.43970726808700356
13.543091017368839,0.5597832021264384,0.439722900765187
13.563957347338164,0.55976139804880343,0.4397334933727311
13.58485582681649,0.55976707700902062,0.43972262209678326
13.605786505337703,0.55975446180986177,0.43970668678316299
13.626749432512042,0.5597839933694756,0.43970587705435327
13.647744658026177,0.55980169988815087,0.43970995481294217
13.668772231643326,0.55978790148532886,0.4396967060676723
13.68983220320338,0.55980453678062203,0.43971980794819648
13.710924622623022,0.55979343207264254,0.43968424223258051
13.732049539895856,0.55982644333702425,0.43969670185794973
13.75320700509247,0.55983400221024027,0.43968704504245976
13.774397068360644,0.55982985816359665,0.43969155206257299
13.795619779925405,0.55983137850795539,0.43967451585309414
13.816875190089162,0.55983858266173547,0.43966255566308771
13.838163349231843,0.55985588937765551,0.4396440791370933
13.859484307810943,0.55984289982676383,0.43966916036355824
13.880838116361781,0.55984344190634638,0.4396592524007063
13.902224825497495,0.55986730203318291,0.43964922539515933
13.923644485909179,0.55985362962453622,0.43965276455421509
13.945097148366068,0.55983663095202829,0.43965130721506401
13.966582863715608,0.55985510759099466,0.43963056783202425
13.988101682883586,0.55986278642884846,0.43962433754092745
14.009653656874262,0.55988094207269168,0.43962867837768244
14.031238836770433,0.55986927510886908,0.43963423164151699
14.052857273733689,0.55989416444370321,0.43963202783570787
14.074509019004358,0.55988062479250855,0.43962000446297705
14.096194123901766,0.55988028329708839,0.4396126397669744
14.117912639824294,0.55988960563977175,0.43961043188681032
14.139664618249521,0.55990247562526974,0.43961874412734053
14.161450110734345,0.5599089086082284,0.43961034039387392
14.183269168915047,0.55989457852528568,0.43961614203165844
14.205121844507552,0.55989997460581165,0.43957802808576285
14.227008189307423,0.5599149948771196,0.43960720592388342
14.248928255189991,0.55992080329060767,0.43959891014058272
14.270882094110569,0.55991059306798741,0.43958629950287248
14.292869758104493,0.55993216908889898,0.43959540160582772
14.314891299287279,0.55993233357319239,0.43958118089628756
14.336946769854748,0.55993580764853867,0.43957668003816108
14.359036222083089,0.5599362821504793,0.4395694490833052
14.381159708329132,0.55995230510052119,0.43955598860682221
14.403317281030276,0.55992355698094531,0.43956411840348392
14.425508992704767,0.55995441178755256,0.43955955697647869
14.44773489595176,0.55995161539538019,0.4395552309539274
14.469995043451442,0.55996507347334035,0.4395387434347427
14.492289487965188,0.55997991916817003,0.43954675261654086
14.51461828233562,0.55998572402834734,0.43952807959360957
14.5369814794868,0.56000870681281134,0.43952508566881204
14.559379132424382,0.55999296320919745,0.43950961407550543
14.581811294235601,0.55998783550166864,0.43951203223108731
14.604278018089538,0.55999450495093772,0.439513732794169
14.626779357237181,0.55999512498376092,0.43950978599383311
14.649315365011564,0.56000652097956771,0.43951888039410852
14.671886094827912,0.56001595854226294,0.43948406211884272
14.694491600183683,0.56002373233312197,0.43949052145318368
14.717131934658868,0.56002651835936579,0.43948795474391117
14.739807151915906,0.56002652461927704,0.43949191595359555
14.762517305699975,0.56004134480274526,0.43946855653224715
14.785262449839045,0.56005474883611805,0.43947795929328382
14.808042638244022,0.56005126783780512,0.43946641386508134
14.830857924908887,0.56003986213802037,0.43945178665220491
14.853708363910771,0.56005504582696064,0.43947397827273554
14.876594009410143,0.5600565396416276,0.43945518642378256
14.899514915650983,0.56006505140956075,0.43944379020437718
14.922471136960734,0.56007250320434088,0.43944877604254617
14.945462727750622,0.56008461632325413,0.43946617976180863
14.968489742515683,0.56006933440458118,0.43944536113653998
14.991552235834911,0.56008343456705478,0.43944673988244637
15.014650262371417,0.56010043627806438,0.43943436456157903
15.037783876872483,0.56008324662244691,0.43941776084439471
15.06095313416977,0.56011621116081889,0.43941498927915973
15.084158089179473,0.5600989349608676,0.43942207866894822
15.107398796902297,0.56009484530546894,0.43941547493198002
15.130675312423756,0.56011401416309103,0.4394031883815025
15.153987690914223,0.56011637989490926,0.439415424111542
15.177335987629071,0.56012317516145615,0.4394118518409631
15.20072025790882,0.56013774780416714,0.43940861389073266
15.224140557179194,0.56011385995308027,0.4393766514073999
15.247596940951427,0.56013402860142913,0.43939388024428205
15.271089464822168,0.56014852585540698,0.43940040225057003
15.294618184473789,0.56014103252019087,0.43937791940786225
15.31818315567444,0.56014991417812898,0.43936964814396345
15.341784434278189,0.56014448527709471,0.43936879079748248
15.365422076225181,0.5601497273639211,0.4393594893804475
15.389096137541705,0.56014775993333144,0.43933798438152782
15.4128066743404,0.56015864170870899,0.43934177566819177
15.436553742820406,0.56018160536652484,0.43935388016355092
15.460337399267358,0.5601861874565992,0.43934370868480072
15.484157700053677,0.56015835520451884,0.43933941450372843
15.508014701638619,0.56018443686091435,0.4393301622490895
15.531908460568431,0.56018819436115508,0.43933415316114155
15.555839033476502,0.56020490326018324,0.43932327533060322
15.579806477083425,0.56019500270730327,0.43930265879919866
15.603810848197238,0.56021999487534235,0.43931248459064465
15.627852203713481,0.56020242828152744,0.43931600136216858
15.651930600615364,0.56021967018088092,0.4393137710257633
15.676046095973886,0.56022229408824065,0.43929925170108364
15.700198746947983,0.56022964739305614,0.43930165831864604
15.72438861078467,0.56023284110770732,0.43927621847378012
15.748615744819118,0.56021901611958869,0.43928587961753252
15.772880206474868,0.56021324484897128,0.43926920311238954
15.797182053263985,0.56025415480992413,0.43927189074984674
15.821521342787046,0.56022880366012195,0.43926271949522294
15.845898132733456,0.56024656648704108,0.43925253865796782
15.870312480881427,0.56023892194764058,0.43924292251119856
15.894764445098287,0.56023066142070632,0.43921791085608136
15.919254083340471,0.56025599868789644,0.4392461383715886
15.943781453653678,0.56027721561736332,0.43924931901305897
15.968346614173081,0.56027227553672221,0.43923371385990845
15.992949623123456,0.56027733560370296,0.43922124864475737
16.01759053881921,0.56027643729527909,0.43922103960875697
16.042269419664645,0.5602938398845756,0.43921091084702107
16.066986324154044,0.56029836135654987,0.43921344795208633
16.091741310871807,0.56030861477492477,0.43922588488774389
16.116534438492618,0.56030161938451573,0.43923685869298235
16.141365765781497,0.56031633044728146,0.43922706340260853
16.166235351594118,0.56031015526521799,0.43922044907743935
16.191143254876717,0.56031232421964183,0.43922136581179594
16.216089534666434,0.56034684029945692,0.43922011857625443
16.241074250091334,0.5603385965937393,0.43918896996727025
16.266097460370588,0.56034019691086023,0.43916725242054078
16.291159224814631,0.56035760217664066,0.4391856829338493
16.316259602825223,0.56037514241971009,0.43918104523302265
16.341398653895677,0.56035894493632188,0.43917327260268552
16.366576437611034,0.56037833274982118,0.43920834936473485
16.391793013648027,0.56037219357525181,0.43918040080932341
16.4170484417754,0.56037430330490401,0.43917651619599118
16.442342781853977,0.56036556301520535,0.43916845375019764
16.467676093836811,0.56038284327643795,0.43915729979483742
16.493048437769335,0.56040110855953451,0.43916114586073884
16.51845987378946,0.56039102207988811,0.43915027670297219
16.543910462127783,0.56037501122007016,0.43914948714858515
16.56940026310771,0.56040120732097221,0.43912723556307975
16.594929337145565,0.56041879461139399,0.43913431710008294
16.620497744750772,0.56041628712207392,0.43913340340324553
16.64610554652598,0.56042576267394828,0.4391228436622121
16.67175280316723,0.56044750816087352,0.43912453932096568
16.697439575464021,0.5604360167915472,0.43912500761288836
16.723165924299558,0.56043020788260145,0.4391186538872649
16.748931910650896,0.56044992448632558,0.43909240338919026
16.774737595588935,0.56044838025828325,0.43910532452993506
