#Digilent WaveForms Network Analyzer - Bode
#Device Name: Discovery2
#Serial Number: SN:210321A18F9B
#Date Time: 2017-02-22 09:14::37.944

Frequency (Hz),Channel 1 Magnitude (V),Channel 2 Magnitude (V),Channel 2 Phase (°)
10.000000000000012,1.0000309385028152,0.44241887919424872,0.35875138627495318
10.015407361541453,1.0000307044303491,0.44240278125540922,0.36060257583187649
10.030838461761862,1.0000435943389019,0.44241309341168611,0.35911437984964323
10.046293337236277,1.0000397777767156,0.44241146489321542,0.36279285416855345
10.061772024596104,1.0000313718376208,0.44241857879128021,0.36369663304047606
10.077274560529155,1.0000369345797759,0.44239654884329538,0.36270008481825045
10.092800981779789,1.0000643005397971,0.44239851696949434,0.36312660423948984
10.108351325149009,1.0000540990930638,0.44239302138708064,0.36260207754885698
10.123925627494456,1.0000564537040812,0.4423890006814305,0.3668031248310939
10.139523925730614,1.0000695082639255,0.44238605924639962,0.36552079018461825
10.155146256828788,1.0000412262569913,0.44238391355448392,0.36761195153823678
10.170792657817303,1.0000701936558145,0.44235037559786045,0.36913849636449214
10.186463165781518,1.0000465941790246,0.44237594574559153,0.36823010748948093
10.202157817863894,1.0000629681278044,0.4423833570503648,0.36817727889344809
10.217876651264161,1.0000210623401016,0.44239758309197291,0.3706046480423808
10.233619703239349,1.0000339259776581,0.44237083503754726,0.37217413520900777
10.249387011103892,1.0000370121713567,0.44240390144530917,0.37184622511417587
10.265178612229715,1.0000541315402061,0.44236259462596977,0.37222808199063451
10.280994544046324,1.0000417372236097,0.44235482375113061,0.3735915751857064
10.296834844040905,1.000070076303061,0.44233156296413034,0.37323944335805237
10.312699549758369,1.000051384943158,0.44237210735026905,0.37665552602416597
10.328588698801509,1.0000354979282553,0.44234546001132929,0.37602868968544101
10.344502328831037,1.0000302970184436,0.4423352435653447,0.37532914850876153
10.360440477565694,1.0000263134025038,0.44233255026296975,0.37669748701582506
10.376403182782349,1.0000434577853272,0.44232966048377292,0.37741963197571948
10.392390482316026,1.0000412745131011,0.44233745903196425,0.37811069751700188
10.408402414060115,1.0000341889432958,0.44233564613261223,0.37929026761197804
10.424439015966348,1.0000258811802296,0.44233272550314001,0.38090284167766697
10.440500326044919,1.0000691336135221,0.44230877752084302,0.38143806932635016
10.456586382364609,1.0000480249625081,0.44233050121906553,0.38370658362079268
10.472697223052849,1.0000424343483336,0.4423175307054788,0.38512844106191579
10.488832886295812,1.000047916214553,0.44231186315725002,0.38257567950125804
10.504993410338514,1.0000609180300382,0.44230810864065528,0.38090035231168429
10.521178833484859,1.0000782208978223,0.44229060647791202,0.38609891496189874
10.537389194097825,1.0000658092984485,0.44229163252407322,0.38543402097523938
10.553624530599469,1.0000240180686475,0.44232430208916823,0.38818327505158123
10.569884881471026,1.000066660346977,0.44225705958169853,0.38667667748160994
10.586170285253049,1.0000516217356206,0.44227569888506474,0.3875664874068292
10.602480780545466,1.0000569926272165,0.44230344924271864,0.39091331343686164
10.618816406007671,1.0000641478989276,0.44229452676363984,0.38980205927854428
10.635177200358626,1.000064639616405,0.4422756438185973,0.39080839865773953
10.651563202376947,1.000072454151252,0.44226938509911129,0.39157948611850202
10.667974450901012,1.0000769809710681,0.44227511917887541,0.39373666370447324
10.684410984829,1.0000625191966246,0.44228787962917548,0.39531026664803903
10.700872843119061,1.0000520099248165,0.44225866656768226,0.39466617665179626
10.717360064789354,1.0000660231184699,0.44227128762786988,0.39393950583778548
10.733872688918154,1.0000286983748383,0.44228423467277922,0.39676840435625138
10.750410754643962,1.000033802316135,0.44225298922801504,0.39834810979686353
10.766974301165531,1.0000256945921873,0.44225941993983292,0.39912182768988913
10.783563367742078,1.0000606966558456,0.44224981936386937,0.40162946322069359
10.800177993693271,1.0000385675180159,0.44224371112920235,0.39995422141574721
10.816818218399346,1.0000443295806656,0.4422463205501771,0.40060497277581675
10.83348408130124,1.0000540019032274,0.44224719895675785,0.40104227025842931
10.850175621900647,1.0000504064698892,0.44226367438561304,0.40359217461000441
10.866892879760123,1.0000380278314678,0.44224492214414957,0.40147703807302548
10.88363589450319,1.0000375462451958,0.4422499324853813,0.40528918297283667
10.900404705814381,1.0000139257884035,0.44225043814427201,0.40566040818620053
10.917199353439443,1.0000379333061411,0.44224834197055546,0.40522665832033056
10.934019877185285,1.0000094031280697,0.4422500295061057,0.40651201249611546
10.950866316920196,1.000024042822949,0.44222636381971886,0.41021986888848971
10.967738712573874,1.0000486445577423,0.44220442042617003,0.40869759774228243
10.984637104137542,1.0000380015275954,0.4422190023612122,0.41157923833448962
11.001561531664054,1.0000435770238902,0.44221434132622844,0.41205448708555537
11.018512035267918,1.0000130306337836,0.44220950351307819,0.41214817487158939
11.035488655125526,1.0000290882795804,0.44220609527645577,0.41096419899815828
11.052491431475136,1.0000470090834215,0.44219678624203712,0.41433489528441214
11.069520404616979,1.0000481776154926,0.44218124877248605,0.41398266989587995
11.086575614913409,1.0000591137875616,0.44220882398729322,0.41204432654181744
11.103657102788958,1.0000702331723679,0.44220058901436804,0.41420737744025615
11.120764908730445,1.0000745046949,0.44217847570033675,0.41661728665103936
11.137899073287075,1.0000646359208079,0.44217868613381839,0.41711889276027136
11.155059637070485,1.0000451016855936,0.44219684054388592,0.41915781249023354
11.172246640754965,1.0000552000034988,0.44217255026770186,0.42118798597772411
11.189460125077391,1.0000387815214578,0.44215761440073709,0.42030561288486723
11.206700130837451,1.0000613516299734,0.44215593525967711,0.42104645251653494
11.223966698897684,1.0000844025624127,0.44215730816602022,0.42065431396834896
11.241259870183587,1.0000624895738781,0.44215951665919495,0.42291581906427922
11.258579685683719,1.0000642636215302,0.44216480525887197,0.42536466823678154
11.275926186449764,1.0000583360946915,0.44214482708289937,0.42516882843019488
11.293299413596676,1.0000701356065187,0.44214903478586276,0.42796313968427313
11.310699408302792,1.0000678337596427,0.44214100995546307,0.42846073330376555
11.32812621180982,1.0000588124348124,0.44212830580875284,0.42542029898184097
11.345579865423062,1.0000453114939383,0.44211834298305042,0.43063443129956624
11.36306041051145,1.0000638733027591,0.44213869496780706,0.42996077886451189
11.380567888507649,1.0000710286767385,0.44213532331641325,0.42996612139175028
11.398102340908176,1.0000720798348806,0.44210738601181548,0.4318068556865029
11.415663809273434,1.0000539091432541,0.44211822909581161,0.43374832308106903
11.433252335227937,1.0000726939489275,0.44210392729638071,0.43153315418084759
11.450867960460288,1.0000598708416955,0.44210149342489841,0.43633529491314249
11.4685107267233,1.0000086084042539,0.44213158324663715,0.43796909770939862
11.486180675834152,1.0000537423332032,0.44211315528014444,0.43593197640977621
11.503877849674442,1.0000425895715799,0.44212225689905865,0.43754144935759598
11.521602290190293,1.0000599177248841,0.44209968862882076,0.44039239934343755
11.539354039392471,1.0000785433722172,0.44207554062580701,0.43921659356661991
11.55713313935642,1.0000907821527878,0.44208081355238954,0.43985597037998758
11.574939632222495,1.0000682629097928,0.44208754296899067,0.44221700702214406
11.592773560195894,1.0000522125797671,0.44208841499203788,0.44611364913505014
11.610634965546895,1.0000739692620848,0.44206835558762975,0.44436472366128044
11.628523890610882,1.000063000785413,0.44208010859386643,0.44264374724106403
11.646440377788476,1.0000326836752191,0.44208000060516661,0.4430415551164586
11.664384469545631,1.0000482833781175,0.44208303822076078,0.44722078047166036
11.682356208413697,1.0000542295075752,0.4420800128095696,0.44765020829239432
11.700355636989578,1.0000646032975371,0.44206813273027973,0.44970421964423934
11.718382797935844,1.0000395375468498,0.44205206082934884,0.44814059235833525
11.736437733980726,1.0000515270965131,0.44204145191160654,0.44905922974883339
11.754520487918329,1.0000560785362638,0.44205320708205142,0.45176330773015394
11.772631102608694,1.0000609861954366,0.44204859369949473,0.45457140602984936
11.790769620977885,1.0000711989133353,0.44203666844089629,0.45136569297769569
11.808936086018122,1.0000581541008686,0.44204207748324154,0.45500418011977928
11.827130540787815,1.0000377857432019,0.44203837405786056,0.45360161955117917
11.8453530284118,1.0000627382421379,0.44202320389384431,0.45752175448528476
11.863603592081276,1.0000436207670262,0.4420293321151193,0.45655339964554287
11.881882275054028,1.0000468163732996,0.4420182741149894,0.46136547906399983
11.90018912065449,1.0000488754395045,0.44202510932469297,0.46194327726004758
11.918524172273836,1.0000647330161674,0.44200148280411489,0.461156835840562
11.93688747337011,1.000050889132956,0.4420129927233355,0.46214376439958471
11.955279067468281,1.000037209223605,0.44201602792035877,0.46069393736304676
11.973698998160399,1.0000399512016358,0.44201347069507269,0.46210497644710102
11.992147309105716,1.0000468197033556,0.44200450474384839,0.46399723060269338
12.010624044030678,1.0000596815978051,0.44197594077375962,0.46537400378879568
12.02912924672915,1.0000498018123916,0.4419803664475252,0.46669985124986368
12.047662961062457,1.0000667623433204,0.44198868488846232,0.46512294226960194
12.066225230959509,1.0000299723930017,0.44196624136675194,0.47003562192140436
12.084816100416907,1.0000437079822204,0.44196426609224343,0.47027411127616858
12.103435613499002,1.0000715042649322,0.44197197286352746,0.47296322745674502
12.122083814338076,1.0000668563833541,0.44195343549809224,0.47305227235531788
12.140760747134392,1.0000696118229644,0.44196106202303831,0.47219646448396446
12.159466456156315,1.0000423997754693,0.44194087064005866,0.47369279482238369
12.178200985740418,1.0000300355114946,0.4419493611522079,0.47617067711575345
12.196964380291581,1.0000481251589737,0.4419506600992405,0.47714425850735864
12.215756684283118,1.0000588170213958,0.44192375890505253,0.47881391925106698
12.23457794225682,1.0000458889886603,0.44194126216290996,0.48123396732443524
12.253428198823137,1.0000469231617974,0.44194716827729835,0.47903384503672441
12.272307498661284,1.0000110721492075,0.44194666323581588,0.48090181992905201
12.291215886519247,1.0000291014355975,0.44195888456276028,0.48084832910863895
12.31015340721401,1.000028910017815,0.44192526519588898,0.48286379296493465
12.329120105631555,1.0000225423233695,0.44194273927580507,0.48356866329945802
12.348116026727086,1.0000452122710739,0.44193584894563648,0.48555315156495737
12.367141215525042,1.0000212014888881,0.44191427142136502,0.48547539661473849
12.386195717119209,1.0000271411183765,0.44189973288035372,0.48647614493886238
12.405279576672879,1.0000442280001796,0.44190114787265367,0.49031245590711592
12.424392839418925,1.0000215527681848,0.44190677212175417,0.49045435272017102
12.443535550659906,1.0000421746690402,0.44189433437345932,0.49346989441192335
12.462707755768186,1.0000564045602442,0.44189522398813652,0.4934689388749689
12.481909500186029,1.0000506552681685,0.44190959531641855,0.4922562841339726
12.501140829425735,1.0000160694934592,0.44191020924198232,0.4940252632251827
12.520401789069679,1.0000382902437495,0.44190348241305927,0.49567669980379492
12.539692424770497,1.0000353806242701,0.44187942068459235,0.49732830794331306
12.5590127822512,1.0000527427758121,0.44188520921374985,0.49881020851444191
12.578362907305172,1.0000660756579152,0.44187433969462614,0.50130520296562509
12.597742845796402,1.0000537099815012,0.44187793981421852,0.49900360368999941
12.617152643659532,1.0000443867541391,0.44190659664310727,0.50171299552015824
12.636592346899974,1.0000566798474666,0.44187928528767184,0.50168640488200111
12.656062001594037,1.0000394029669952,0.44187967859363236,0.50259146731541193
12.675561653888982,1.0000210017689393,0.44187439574648824,0.50650752645507424
12.695091350003198,1.000031914426764,0.44187375074146806,0.50476773013097187
12.714651136226324,1.0000249067956468,0.44187094879773881,0.50708289888458324
12.734241058919237,1.0000543235867305,0.44185741809578122,0.50627498545210159
12.753861164514314,1.0000577179893371,0.44185731938178952,0.50948101785465383
12.773511499515402,1.0000279796262135,0.44184643054916428,0.51214779825800605
12.793192110498081,1.0000093696523296,0.44184969489872322,0.51310988891314935
12.812903044109651,1.0000523613264065,0.44184192845482778,0.5127485869334194
12.832644347069253,1.0000582422540167,0.44181233588533186,0.5128514623598619
12.852416066168058,1.0000660543857449,0.44182215877516129,0.51639934036013102
12.872218248269304,1.0000566176687082,0.44183240046126948,0.51776393927735143
12.892050940308446,1.0000572943796753,0.44184164026232864,0.51509751289156469
12.911914189293247,1.0000711772625661,0.44181605141626001,0.51687813859806653
12.931808042303897,1.0000303468058873,0.44183579280350965,0.5202174791904568
12.95173254649314,1.000012517340183,0.44183114562851966,0.51845310394958233
12.971687749086328,1.0000547510030178,0.44178829906322331,0.5215836394151907
12.9916736973816,1.0000931517163782,0.44179554436955443,0.52184459529834015
13.011690438750014,1.0000529239985292,0.44179899821684027,0.52554578614410019
13.031738020635528,1.0000334469693286,0.44180486570574862,0.52342874909913206
13.051816490555266,1.0000280609524297,0.44179359801704005,0.52579365271834888
13.071925896099508,1.0000516898065512,0.44178305443577148,0.52728130190148192
13.092066284931919,1.0000568544037443,0.44178204764961831,0.52879373279437658
13.11223770478958,1.0001964293063808,0.4417879031891403,0.53001667153853305
13.132440203483082,1.0000380778033311,0.44177736644727306,0.53023251208119149
13.152673828896722,1.0000298666813963,0.44177065404060534,0.53464785441531859
13.172938628988572,1.0000580642292467,0.44175253609458998,0.53630281224106824
13.193234651790574,1.0000620941351233,0.4417575694805379,0.53452219477041751
13.213561945408696,1.0000652257959555,0.44175203026719145,0.53637396758237088
13.23392055802301,1.000021060967117,0.44177145357839037,0.53643220852379869
13.254310537887839,1.0000556590040639,0.44174812036159206,0.53906962401148206
13.274731933331816,1.0000396499081075,0.4417376139547266,0.53772278676004959
13.295184792758073,1.0000136286314474,0.44175878947953939,0.54061230439957342
13.315669164644303,1.0000424819994456,0.44173335293151639,0.54098493209916398
13.336185097542891,1.0000016431963306,0.4417376368436301,0.54377444616485349
13.356732640081047,1.0000343551628084,0.44174284538333664,0.54556142180072698
13.377311840960845,1.0000336463795083,0.44171922235385852,0.54681749479646413
13.397922748959473,1.0000279786872603,0.44170399542210392,0.54860351850769717
13.41856541292924,1.0000258266239856,0.44170401177446605,0.54864341868394462
13.439239881797686,1.0000032162502819,0.44171758934946342,0.55126616078259616
13.459946204567775,1.0000182699795503,0.44169267624341202,0.54983279350994962
13.480684430318002,1.0000288801471537,0.44170801302423129,0.55182520787985823
13.501454608202399,1.0000382847645806,0.44168050383576479,0.55406892918792039
13.522256787450807,1.0000477799863468,0.44169501556220087,0.55454792764563621
13.543091017368839,1.000023015951188,0.44170183031718124,0.55513529312121079
13.563957347338164,1.0000201026723499,0.44168654957624265,0.55977727005468125
13.58485582681649,1.0000528462125367,0.44165446835740313,0.56210402968108752
13.605786505337703,1.0000449558335129,0.44165861927570355,0.56052711069889938
13.626749432512042,1.0000363646861923,0.44164086955152765,0.56159429759400581
13.647744658026177,1.0000583970208099,0.44164183781669597,0.56160163270063634
13.668772231643326,1.000019102993013,0.44165526347178596,0.56405425635826134
13.68983220320338,1.000012427394849,0.44164766400954814,0.56537072456841742
13.710924622623022,1.0000301724217988,0.44164504315261016,0.56488630190201405
13.732049539895856,1.0000311260771644,0.4416276880760327,0.56987796948709502
13.75320700509247,1.0000474312244851,0.44160679692123056,0.57108729309675965
13.774397068360644,1.0000440186735839,0.44161926543945779,0.56889227687909028
13.795619779925405,0.99999478988691148,0.44161947882839753,0.57393155543918084
13.816875190089162,1.0000104774750596,0.44162352364775159,0.57369670998934907
13.838163349231843,1.0000131785779109,0.44161952013138878,0.57705443976214355
13.859484307810943,1.0000405940334141,0.44158888720471207,0.57584598380110918
13.880838116361781,1.0000329058534685,0.44161308197856786,0.57606514100456963
13.902224825497495,1.0000405666531658,0.44160162477126141,0.57999221056493155
13.923644485909179,0.99999544434035192,0.44159679929037216,0.57901260138477539
13.945097148366068,1.0000662290380535,0.4415799050519475,0.58015177030277698
13.966582863715608,1.0000467897725733,0.44157392886149205,0.58220062557357721
13.988101682883586,1.0000697169034929,0.44158627397116185,0.58336772421102978
14.009653656874262,1.0000476529419586,0.44156783980038805,0.58794808357383488
14.031238836770433,1.0000473460725341,0.44155947770768444,0.58407148988068514
14.052857273733689,1.0000357641794044,0.44158951648913658,0.58687100479081522
14.074509019004358,1.0000586631107258,0.44155500845940671,0.58968572303201938
14.096194123901766,1.0000603337818679,0.44155049451943951,0.59179943979734873
14.117912639824294,1.0000858656986717,0.44154371565781475,0.59249932316286902
14.139664618249521,1.0000731436550845,0.44154777722313848,0.59285342711786626
14.161450110734345,1.0000658772112441,0.44154887518811792,0.59466526342855985
14.183269168915047,1.000099876935735,0.44154599217878959,0.59653526309300986
14.205121844507552,1.0000800678451671,0.44155534328871965,0.59633002593753304
14.227008189307423,1.0000608359288634,0.44153332182729965,0.59768613579802121
14.248928255189991,1.000048570917057,0.44151484167184635,0.59892697240603354
14.270882094110569,1.0000422844843566,0.44154189590595083,0.60126048182331715
14.292869758104493,1.0000548123740114,0.44152678469945944,0.60322773732234936
14.314891299287279,1.0000537628201762,0.44152541814862395,0.60416070521520737
14.336946769854748,1.0000399905110244,0.44151977720438085,0.60653508352145025
14.359036222083089,1.0000459684220515,0.44151923830343803,0.60850055143149717
14.381159708329132,1.0000366730324481,0.44152575331339478,0.60885046378673024
14.403317281030276,1.0000227599546563,0.44152013932350187,0.60920689491322833
14.425508992704767,1.0000444912204518,0.4415124903921635,0.60947397096975919
14.44773489595176,1.0000433156140123,0.44148279142369462,0.61450859441035988
14.469995043451442,1.0000464876001114,0.44147596651947368,0.61395171876760202
14.492289487965188,1.0000590273677694,0.44150139809515015,0.61510449922859323
14.51461828233562,1.0000412612216978,0.44145226864822679,0.61821735361505148
14.5369814794868,1.0000539327132223,0.44147263170019935,0.61857119416234241
14.559379132424382,1.0000525977346004,0.44146096492367992,0.61795511002682701
14.581811294235601,1.0000276876910579,0.44146199467783559,0.62038947557075375
14.604278018089538,1.0000335047865145,0.44145066755153972,0.62424097679093649
14.626779357237181,1.0000580690605259,0.44144810935628515,0.62371646660562163
14.649315365011564,1.000028027116564,0.44145355660547664,0.62551287034206382
14.671886094827912,1.000037023235915,0.4414506221220883,0.62727496382862569
14.694491600183683,1.0000487424989644,0.44144565113504625,0.62818487087996289
14.717131934658868,1.0000323672925033,0.44142800323491699,0.6298638274752193
14.739807151915906,1.0000594740894564,0.44142593078859516,0.63164601875752169
14.762517305699975,1.0000145619207357,0.4414439455823187,0.63089271745300124
