#Digilent WaveForms Network Analyzer - Bode
#Device Name: Discovery2
#Serial Number: SN:210321A18F9B
#Date Time: 2017-02-22 10:42::04.903

Frequency (Hz),Channel 1 Magnitude (V),Channel 2 Magnitude (V),Channel 2 Phase (°)
10.000000000000012,1.0001455664089964,0.26430080643923315,0.68098557368650603
10.015407361541453,1.0001581436361258,0.26432880332480974,0.6780282107229425
10.030838461761862,1.0001319374273272,0.26429798919253322,0.68147852224237937
10.046293337236277,1.0001579733952826,0.26428488758348972,0.68275121690300011
10.061772024596104,1.0001475638885655,0.26429969773451445,0.68695780724519295
10.077274560529155,1.0001359977937203,0.26430635594454138,0.68573310648560692
10.092800981779789,1.0001471262477462,0.26429264468698954,0.68514461345729671
10.108351325149009,1.0001267653725572,0.26429442954915655,0.68651707952593455
10.123925627494456,1.0001198769324906,0.26428546778477202,0.69298503542182033
10.139523925730614,1.0001479599973797,0.26429744299622976,0.69399979277142165
10.155146256828788,1.0001468295805094,0.26429412190473184,0.69371616988573948
10.170792657817303,1.0001591936953929,0.26429899099652843,0.69498437102076593
10.186463165781518,1.0001356690685552,0.26428859022210943,0.69439319509628206
10.202157817863894,1.0001421315196466,0.26427522540991405,0.69235314151175231
10.217876651264161,1.0001470423552843,0.2642709676044121,0.69672268614941402
10.233619703239349,1.0001232559399786,0.26429467478233382,0.69889601080031838
10.249387011103892,1.0001080398013871,0.26428175206222082,0.70028963730193539
10.265178612229715,1.0001303225906353,0.26426406004301184,0.70231115480240192
10.280994544046324,1.0001060184349777,0.26429079304097136,0.70309862180899074
10.296834844040905,1.0001225728419334,0.26427908114786558,0.70475869570022809
10.312699549758369,1.0001415249275947,0.26429600357764427,0.70012916979888473
10.328588698801509,1.0001213722422333,0.26427439275293224,0.70818904587631692
10.344502328831037,1.0001267640187079,0.26427978768890698,0.70906697476223002
10.360440477565694,1.0001102900392556,0.26425860148056918,0.7079526298601877
10.376403182782349,1.0001170923592835,0.26428535000727787,0.71043829588594321
10.392390482316026,1.0001198710667283,0.26426910242887436,0.71175052240192116
10.408402414060115,1.0001267798539137,0.26427033573669673,0.71341671379635585
10.424439015966348,1.0001310441565612,0.26428250399547737,0.7146316984247747
10.440500326044919,1.0001456843346221,0.2642728047164899,0.71608782717979125
10.456586382364609,1.0001035417904804,0.26427214850562658,0.71672829561310891
10.472697223052849,1.0001029264472372,0.2642745136638574,0.71343468557888912
10.488832886295812,1.0001102560621979,0.26428820832022759,0.71737329628985691
10.504993410338514,1.0001196603797124,0.2642679695043994,0.72265626295015295
10.521178833484859,1.000136200659304,0.26426747858138111,0.72222511136390466
10.537389194097825,1.0001351809730747,0.26426964314498563,0.72301497227360834
10.553624530599469,1.0001567163633915,0.26427670922470498,0.72200475095557692
10.569884881471026,1.0001064743720587,0.26428637028253743,0.72456295442910346
10.586170285253049,1.0001299442345912,0.26426404964972489,0.72601523371104548
10.602480780545466,1.0001376205342642,0.26426292422869668,0.7271628831348238
10.618816406007671,1.000132192424104,0.26426429666661044,0.72724345510085442
10.635177200358626,1.0001383156100021,0.26425551849778506,0.72982622560567734
10.651563202376947,1.0001443627480278,0.26425661434639741,0.72930460880863279
10.667974450901012,1.0001200683892517,0.26425484890201106,0.73310299603925699
10.684410984829,1.0001122779334142,0.26427684643755706,0.73507523001794084
10.700872843119061,1.0001171102166349,0.26426945144421787,0.739026991058509
10.717360064789354,1.000125723966278,0.26425208789513316,0.73685211959983832
10.733872688918154,1.000129484526274,0.26424991091976985,0.7417768537435947
10.750410754643962,1.0001114136894969,0.26425821034610164,0.74150283248695104
10.766974301165531,1.0001158336345384,0.26426886201185706,0.73975883738157933
10.783563367742078,1.0001136427092416,0.26425330201558855,0.74124322133290121
10.800177993693271,1.0000936984550788,0.26427669545385751,0.74223815226581991
10.816818218399346,1.0001330153904975,0.2642401371450363,0.74617810847171739
10.83348408130124,1.0001284991726209,0.26424847608241858,0.74808523986029485
10.850175621900647,1.0001425176494234,0.26424910050501055,0.74192459106880193
10.866892879760123,1.000136868955944,0.26426074758263796,0.74905048053124546
10.88363589450319,1.0001192230805722,0.26425729917936136,0.7523563706147911
10.900404705814381,1.0001385790636419,0.2642400942045689,0.75376912492405523
10.917199353439443,1.0001548754209677,0.26424865487777838,0.75032673023208929
10.934019877185285,1.0001378055100338,0.26424608920571274,0.75144505995699973
10.950866316920196,1.0001391269976978,0.26424823682514742,0.74896865814858415
10.967738712573874,1.0001373875844659,0.26424577657620374,0.75489581771758196
10.984637104137542,1.0001440855769248,0.26425052474356803,0.75766468954856236
11.001561531664054,1.0001235294544446,0.26423101317277176,0.75934425507023917
11.018512035267918,1.000144231490443,0.26422029877534803,0.75836628347322232
11.035488655125526,1.0001669663730164,0.26423574927924393,0.75910859530589647
11.052491431475136,1.0001510287385933,0.2642429527741626,0.76337063044861253
11.069520404616979,1.0001394824485743,0.26422764701850193,0.76377050167261018
11.086575614913409,1.0001181822922343,0.26424769703985257,0.76677828933009806
11.103657102788958,1.000169574543885,0.26423140359316849,0.7656334229704953
11.120764908730445,1.0001659459350993,0.264228334554306,0.76687960114532672
11.137899073287075,1.0001619245946096,0.26423374119164916,0.77312582118727846
11.155059637070485,1.0001546873932017,0.26423657936067996,0.77399898032660985
11.172246640754965,1.0001148577739456,0.26423404501882009,0.77114699154654431
11.189460125077391,1.0001343216870384,0.26422207003650044,0.77543999229902738
11.206700130837451,1.0000828997593691,0.26422423549091612,0.7730155616351837
11.223966698897684,1.0001345621057964,0.26423020327845986,0.78013080271480106
11.241259870183587,1.0001130020736322,0.26423785067706018,0.77689081968508589
11.258579685683719,1.000076684312281,0.2642365872570977,0.77893998052815761
11.275926186449764,1.000090449431706,0.26423512954209449,0.77833492318443831
11.293299413596676,1.0001188102840961,0.26422701038205859,0.78106939289894228
11.310699408302792,1.0001280272884032,0.26421777234907651,0.78099979763521077
11.32812621180982,1.0001202792114614,0.26423740110721705,0.78007091959251795
11.345579865423062,1.0001156576679151,0.26422795679976213,0.78462371649311535
11.36306041051145,1.0001040526971527,0.26422877984496618,0.78620999072394682
11.380567888507649,1.0001205562033206,0.26423767832697537,0.7879829032174257
11.398102340908176,1.0001217571087453,0.26422199521065215,0.79011989131223714
11.415663809273434,1.0001351749284946,0.26423130373634285,0.79218822249318066
11.433252335227937,1.0001089348669769,0.26422742676802885,0.790176839645234
11.450867960460288,1.0001365995399667,0.26422747321962042,0.79359003235310155
11.4685107267233,1.0000985793283947,0.26422034853945936,0.79969188715131878
11.486180675834152,1.0001140480720414,0.26422057300142893,0.79417947802367905
11.503877849674442,1.0001424589135519,0.26416342529908432,0.79863554981123031
11.521602290190293,1.000132133281618,0.26420889230250033,0.79789575453812489
11.539354039392471,1.0001422043005035,0.2642172833692456,0.80086863608161707
11.55713313935642,1.0001263795327326,0.26419871781407361,0.7995824530308866
11.574939632222495,1.0001418801134456,0.26421433091719654,0.80824405989570636
11.592773560195894,1.0001392752081848,0.26420056452194907,0.8038089500183645
11.610634965546895,1.0001262074159476,0.26420753519593881,0.80552931612740508
11.628523890610882,1.0000915220581499,0.26419537114599478,0.80571237105911564
11.646440377788476,1.0001008116760959,0.26420430091784108,0.81067991772773951
11.664384469545631,1.000123959554639,0.26418110464085187,0.81179160279464213
11.682356208413697,1.0001149778923313,0.26419426933715129,0.81288207203419915
11.700355636989578,1.0001098411078406,0.26421384214778354,0.81257698001832068
11.718382797935844,1.0001390819801534,0.26419764394113715,0.81441038002046895
11.736437733980726,1.0001061288766016,0.26418748880968029,0.81305558012705603
11.754520487918329,1.0001317423515759,0.26418678594298906,0.82162427825367956
11.772631102608694,1.0001126880276208,0.26420323307710508,0.81675580224488442
11.790769620977885,1.0001224289947035,0.26417959002897973,0.81986553926292771
11.808936086018122,1.0000993643616065,0.26418645515476635,0.81992589338706523
11.827130540787815,1.0001532458431908,0.26417988652759,0.82055517995080152
11.8453530284118,1.0001185781515431,0.26418509081304686,0.82772025895633305
11.863603592081276,1.000117714573999,0.26419478015741465,0.82576047108379669
11.881882275054028,1.0001261469798897,0.26419765580204424,0.82944827778000274
11.90018912065449,1.0001133735855423,0.26420188941289419,0.83072137541925883
11.918524172273836,1.0001473975058113,0.26416651301994892,0.83304225635892237
11.93688747337011,1.0001341801074972,0.26418599149353794,0.8296084159690551
11.955279067468281,1.0001591595974326,0.26417836917588944,0.8326432707151028
11.973698998160399,1.0001432984815217,0.26416517782140747,0.83868641706734337
11.992147309105716,1.0001404370478975,0.26416826359363277,0.83725953151868993
12.010624044030678,1.0001429573491705,0.26416415819890615,0.84071311944607174
12.02912924672915,1.000149125357447,0.26416305954807456,0.83963769900532981
12.047662961062457,1.0001476823212545,0.26417183096468549,0.84134377966012153
12.066225230959509,1.0001270292824394,0.26417574360206952,0.84339720571292531
12.084816100416907,1.0001570344553148,0.26414630329918082,0.84076435187836296
12.103435613499002,1.000169591318405,0.26416544327664732,0.8450472022661728
12.122083814338076,1.0001413428788122,0.26416248791209751,0.84858006550221887
12.140760747134392,1.0001350666591877,0.26416146637955906,0.85209061436209765
12.159466456156315,1.000158679643901,0.26416720126417087,0.85108042215183843
12.178200985740418,1.0001516164863717,0.26415668688787636,0.85320857623148783
12.196964380291581,1.0001457549701203,0.26416634612285061,0.85249896545409598
12.215756684283118,1.0001458014699567,0.26414671511338444,0.85653361918464554
12.23457794225682,1.0001569928947946,0.26415373312802909,0.85975503255954067
12.253428198823137,1.0001382400907264,0.26414755048599714,0.8591306292512968
12.272307498661284,1.0001350948800725,0.26413813095780703,0.85975745953969351
12.291215886519247,1.0001450806594574,0.26414214597024077,0.86372702776628074
12.31015340721401,1.0001668557303731,0.26413303080541306,0.86416840518197091
12.329120105631555,1.0001621048868019,0.26414911383343453,0.86530061176598139
12.348116026727086,1.0001524076527881,0.26415311321332341,0.86532315894466905
12.367141215525042,1.0001508398179226,0.26415138516340725,0.87041530503373821
12.386195717119209,1.0001640598935946,0.2641376854100197,0.86758933072778888
12.405279576672879,1.0001630461222446,0.26415578496571646,0.87068861500054595
12.424392839418925,1.0001279950820574,0.26413965608294876,0.87190512450268898
12.443535550659906,1.0001619061565548,0.26413042942170195,0.87320217028864278
12.462707755768186,1.0001315888704254,0.26412146722317253,0.87497033802224422
12.481909500186029,1.0001390651755129,0.2641323696249665,0.8768424748907222
12.501140829425735,1.0001300125045316,0.26412833746393188,0.87912171883395018
12.520401789069679,1.0001403160377149,0.26414677786392388,0.88264889572541705
12.539692424770497,1.0001420085050787,0.2641323237244807,0.8838898468119325
12.5590127822512,1.0001853293149314,0.26412152827303759,0.88295371879817708
12.578362907305172,1.0001356689045138,0.26413759660803926,0.88441556655838127
12.597742845796402,1.0001413261323953,0.26414820197395783,0.88492022675874438
12.617152643659532,1.000143123773626,0.26413213313622613,0.89017885696114973
12.636592346899974,1.0001359485932722,0.26411606945933885,0.89143751863363718
12.656062001594037,1.0001521777912532,0.2641126591656503,0.88858976780802834
12.675561653888982,1.0001481577600553,0.26413726087341682,0.8904008606474747
12.695091350003198,1.0001639263095221,0.26410995078952498,0.89694874662729518
12.714651136226324,1.0001462612073115,0.26411102018793409,0.89259133790201872
12.734241058919237,1.0001569255766281,0.26412818417579248,0.89959594867794834
12.753861164514314,1.0001442252901029,0.26411404737382593,0.90157973380143375
12.773511499515402,1.0001293044901081,0.26412070437973151,0.89966650805093451
12.793192110498081,1.0001469798847751,0.26412554488733497,0.90543385120089681
12.812903044109651,1.0001516250527087,0.26413021748767335,0.90648476198411032
12.832644347069253,1.0001376114056451,0.26409883362316672,0.90450706710372941
12.852416066168058,1.0001456348277511,0.26412447196648847,0.90677598536024817
12.872218248269304,1.000139081926531,0.26410772492432283,0.90822459454969362
12.892050940308446,1.0001635619639007,0.2641027743987307,0.90940771324559222
12.911914189293247,1.0001748289803281,0.26410347867320383,0.90965384877655353
12.931808042303897,1.0001427746894527,0.26412697650068206,0.91308947196534973
12.95173254649314,1.0001379936926256,0.26412098063819561,0.91266413037629235
12.971687749086328,1.0001442362004822,0.26410591974974901,0.9166123707235343
12.9916736973816,1.0001403088080925,0.26409606600279478,0.91793250047962971
13.011690438750014,1.0001591186787213,0.26410220295417919,0.92092985374095093
13.031738020635528,1.0001694237421108,0.2641067678759409,0.92170587412475413
13.051816490555266,1.0001783417190444,0.26410173198684578,0.92656986759286042
13.071925896099508,1.0001550871975977,0.26409895448287146,0.92367756852525673
13.092066284931919,1.0001456980855579,0.26410304065462814,0.92934367684176067
13.11223770478958,1.0003087465701699,0.26410927003121393,0.92911942686711768
13.132440203483082,1.0001779920160581,0.26409639189164363,0.92984193884605304
13.152673828896722,1.0001437993295688,0.26409735138503071,0.93054401511867724
13.172938628988572,1.0001685654109165,0.26409594903832906,0.93330265451448469
13.193234651790574,1.0001138583235871,0.26410618592056079,0.93693486268971071
13.213561945408696,1.0001297789581274,0.2640843877167634,0.93626437240874338
13.23392055802301,1.0002064023729607,0.26408369400179316,0.94025169503470352
13.254310537887839,1.0001779330870439,0.26408893084692531,0.93896270355452316
13.274731933331816,1.0001607653750846,0.26410353010352677,0.94367956084242621
13.295184792758073,1.0001868534021383,0.26405555391007912,0.94262557768992394
13.315669164644303,1.0001720789891013,0.26409575052019546,0.94581378243280767
13.336185097542891,1.0001363297502277,0.26408779237419183,0.9477506875613031
13.356732640081047,1.0001589971280256,0.26407068781340831,0.94868639995831217
13.377311840960845,1.0001402053418784,0.26406716397089197,0.95124829006940814
13.397922748959473,1.0001608182892299,0.26407628101280878,0.94724976177190712
13.41856541292924,1.0001721807084312,0.26406918777464111,0.95121194412336507
13.439239881797686,1.0001547424312072,0.2640930862093559,0.95647306091834849
13.459946204567775,1.0001603644173522,0.26407439696654333,0.95623168510918077
13.480684430318002,1.0001465235791405,0.26408322884385499,0.95931134572140309
13.501454608202399,1.0001547358629799,0.26407488286258268,0.95921963570989277
13.522256787450807,1.0001480201626924,0.26406928372798427,0.96217059786496151
13.543091017368839,1.0001232386948464,0.26408151056718859,0.96130876703832513
13.563957347338164,1.0001503825837432,0.26407605545542617,0.96593816248358166
13.58485582681649,1.0001699403469444,0.26407232880454201,0.96569184388265228
13.605786505337703,1.0001408285038493,0.26408142050656624,0.96917363629820841
13.626749432512042,1.0001301692822093,0.26407360186166673,0.96963244208641441
13.647744658026177,1.0001468302121261,0.26407917379970963,0.96892386158717869
13.668772231643326,1.0001301445905479,0.26408148969548395,0.97194250080385558
13.68983220320338,1.0001388118619237,0.26406069334072341,0.97708361260870902
13.710924622623022,1.0001293720268951,0.26406910719229743,0.97589487418365195
13.732049539895856,1.0001731144273296,0.26405924897482058,0.97978149835552131
13.75320700509247,1.0001519586812451,0.26405726570025212,0.98113712043070223
13.774397068360644,1.0001381831132472,0.26406937686159765,0.98453497685867575
13.795619779925405,1.0001408817536765,0.26405677940864181,0.98494750569180667
13.816875190089162,1.0001242217112847,0.26407167698846751,0.98744403058910279
13.838163349231843,1.0001444302619851,0.26404870977380429,0.9871656185514297
13.859484307810943,1.0001391389146179,0.26403925608847822,0.98415126152753984
13.880838116361781,1.0001682187104619,0.2640717384777273,0.99586864576139078
13.902224825497495,1.000129416682138,0.2640596041594131,0.99102485622547931
13.923644485909179,1.0001506879683004,0.26403002115069557,0.99944662527125416
13.945097148366068,1.0001427955837554,0.26405571227947056,0.99844259418034653
13.966582863715608,1.0001713375932406,0.26404391664645971,0.99808859084510715
13.988101682883586,1.0001306522448117,0.26404668259463426,1.001702251982401
14.009653656874262,1.0001324019504947,0.2640477093835048,1.00192507689232
14.031238836770433,1.0001547776723716,0.26403607116623734,1.0025633056087884
14.052857273733689,1.0001484183194582,0.26403150746380816,1.0104033011911824
14.074509019004358,1.0001556251012635,0.26403943395317453,1.0024937861070953
14.096194123901766,1.0001407494385199,0.26404329549481959,1.0091230245051364
14.117912639824294,1.0001572691001612,0.26404270990329659,1.0134616315089957
14.139664618249521,1.0001309242589085,0.26403950277120691,1.0145525618812599
14.161450110734345,1.0001400508429856,0.26404834139399808,1.0145692087103058
14.183269168915047,1.0001099790912737,0.26403456010578186,1.0193420151470676
14.205121844507552,1.0001374055271055,0.26403426154859161,1.0199367006482518
14.227008189307423,1.0001350976911803,0.26403658818391429,1.0159708337431113
14.248928255189991,1.0000995713576506,0.26405286686155355,1.0218686669817352
14.270882094110569,1.000140593201132,0.26403981359307971,1.0255138886241966
14.292869758104493,1.0001103620204721,0.26403766223516506,1.0270509752585397
14.314891299287279,1.0001144047058972,0.26402924018397245,1.0246111328233454
14.336946769854748,1.0001474646857409,0.26401323359237011,1.0299226449768923
14.359036222083089,1.0001739216669434,0.26402975768055131,1.03145510554846
14.381159708329132,1.0001681544132879,0.26400289290200052,1.0370035304218277
14.403317281030276,1.000136575797403,0.26402475351331867,1.0365529614276952
14.425508992704767,1.0001360517106876,0.26402621031999868,1.0346814240247042
14.44773489595176,1.0001343432344687,0.26402273513304542,1.0410464292802146
14.469995043451442,1.00015841075678,0.26400999075939036,1.044203516098559
14.492289487965188,1.0001323254832337,0.26402119301999544,1.0424320355175283
14.51461828233562,1.0001317375067866,0.26400934018937117,1.0452481386613641
14.5369814794868,1.0001248202449595,0.26399878915824043,1.0488301244208031
14.559379132424382,1.0001597250037642,0.26400706438074056,1.0484291367089966
14.581811294235601,1.0001539112561804,0.26401801315686535,1.0472162677610868
14.604278018089538,1.0001189169477946,0.26399864467818845,1.051645328481392
14.626779357237181,1.0001347242301268,0.26402364690463281,1.0558121296963066
14.649315365011564,1.000161425045653,0.26400507153553759,1.0572794253350857
14.671886094827912,1.0001406327466562,0.26400273291303722,1.0575445359904592
14.694491600183683,1.0001764088693341,0.26401657063822087,1.0617997960872714
14.717131934658868,1.000165126582617,0.26399505885561264,1.0603563957215734
14.739807151915906,1.0001466249764026,0.26401090413630512,1.0643547583150443
14.762517305699975,1.000151580250014,0.26400717522408124,1.0647415863685907
14.785262449839045,1.0001772101257291,0.26399430989454192,1.0701770653429215
