#Digilent WaveForms Network Analyzer - Bode
#Device Name: Discovery2
#Serial Number: SN:210321A18F9B
#Date Time: 2017-02-20 13:00::55.805

Frequency (Hz),Channel 1 Magnitude (V),Channel 2 Magnitude (V)
10.000000000000012,0.7364408982534385,0.26290650858057196
10.015407361541453,0.73646620648594052,0.2629142348403295
10.030838461761862,0.73644880665753176,0.26291820134890082
10.046293337236277,0.73645316751140877,0.26289779678860725
10.061772024596104,0.73642145040212148,0.26289267611991035
10.077274560529155,0.73644581206712623,0.26290052317106088
10.092800981779789,0.73646466066306127,0.26290035023562802
10.108351325149009,0.73643831876463461,0.26289015884036637
10.123925627494456,0.73643878884863911,0.26289947004069875
10.139523925730614,0.73644017576307963,0.26289612336270934
10.155146256828788,0.73642514479651144,0.2628974167908591
10.170792657817303,0.7364466956264184,0.2628826651611379
10.186463165781518,0.7364499934370875,0.26291068823699881
10.202157817863894,0.73645275643998331,0.26288336009949181
10.217876651264161,0.73645189665060518,0.26288414158098428
10.233619703239349,0.73644901187137657,0.2628901675515023
10.249387011103892,0.73647274199715185,0.26288545984852707
10.265178612229715,0.73646181249440823,0.26288756048661976
10.280994544046324,0.73647656817088181,0.26288301188245744
10.296834844040905,0.73647082324570312,0.26288501602369552
10.312699549758369,0.73646532679146071,0.26288498034209234
10.328588698801509,0.73648876961605647,0.26287441560856473
10.344502328831037,0.73646689624704231,0.26287318700223228
10.360440477565694,0.73647282262009772,0.26286912370508064
10.376403182782349,0.73648216597095806,0.26287136505932196
10.392390482316026,0.73649005830003555,0.26287576549071917
10.408402414060115,0.73646649889190019,0.26288389912952037
10.424439015966348,0.73643492522081744,0.26287704121095201
10.440500326044919,0.73647495107553118,0.26288162227487283
10.456586382364609,0.73646609930579499,0.26286336079777911
10.472697223052849,0.73647070119513147,0.2628711610267544
10.488832886295812,0.73646441666415519,0.26286307180710877
10.504993410338514,0.7364617257428383,0.26287448078966541
10.521178833484859,0.73648257783560744,0.26287691423311516
10.537389194097825,0.73645800910500714,0.26288776336190273
10.553624530599469,0.73645684097226916,0.26285323763958707
10.569884881471026,0.73646107773576142,0.26286702386636157
10.586170285253049,0.73647315118022083,0.26286063046105457
10.602480780545466,0.73647092803737169,0.26285491941534334
10.618816406007671,0.73644872000941908,0.26284998825112549
10.635177200358626,0.7364551214105991,0.26286055006969605
10.651563202376947,0.73646217909438527,0.26285586532233973
10.667974450901012,0.73645761791514242,0.26285967333357269
10.684410984829,0.73648458903822545,0.26285378301427453
10.700872843119061,0.73647468730164001,0.26285519054444173
10.717360064789354,0.73647719708779569,0.26286214074008496
10.733872688918154,0.73648822049034124,0.26285654536923753
10.750410754643962,0.73648391515815503,0.26284333360992534
10.766974301165531,0.73647012671826451,0.26284063176216937
10.783563367742078,0.73648972253120548,0.26285179560161631
10.800177993693271,0.73646557812759439,0.2628319262351293
10.816818218399346,0.73651475344334227,0.26284273526330243
10.83348408130124,0.73649409922088638,0.26283808494666749
10.850175621900647,0.73648396494454427,0.26282961331840249
10.866892879760123,0.73649697415476012,0.26284197404805232
10.88363589450319,0.73649373657913797,0.26284613296908649
10.900404705814381,0.73650533650672512,0.26283059353872462
10.917199353439443,0.73651467036238805,0.26282645901833823
10.934019877185285,0.73648997891664281,0.26282921124086195
10.950866316920196,0.73650263373055835,0.26282653656252136
10.967738712573874,0.73649512546580376,0.26282690990579544
10.984637104137542,0.73652202969893188,0.26284441368445632
11.001561531664054,0.73651733783086326,0.26282182823279326
11.018512035267918,0.73653097097148212,0.26282557259078315
11.035488655125526,0.73651998067432789,0.26282502128297036
11.052491431475136,0.73649985859444567,0.26282764000028669
11.069520404616979,0.7364925067564837,0.2628433356269686
11.086575614913409,0.73652204327347259,0.26284545044926239
11.103657102788958,0.73650035507572964,0.26282771876183192
11.120764908730445,0.73652162283553324,0.26282227560950644
11.137899073287075,0.73651953293789263,0.2628062567791562
11.155059637070485,0.73650803881490068,0.26282824372800745
11.172246640754965,0.73653478356369861,0.26282600980933751
11.189460125077391,0.73652710702033064,0.26283617343288002
11.206700130837451,0.73651741966512529,0.26281019255888033
11.223966698897684,0.73652907554000524,0.26283263642785282
11.241259870183587,0.73651243189051563,0.26280608480254269
11.258579685683719,0.73652286470600148,0.26281919533151699
11.275926186449764,0.73653333847711855,0.26281039106242599
11.293299413596676,0.73653830180073643,0.26281855692546419
11.310699408302792,0.73651648790047963,0.26280350441580574
11.32812621180982,0.7365162739953115,0.26281149928275754
11.345579865423062,0.73651828626638871,0.26280830370444075
11.36306041051145,0.73652373810620231,0.26282896643333281
11.380567888507649,0.7365588042326211,0.26280821405755522
11.398102340908176,0.73656921210901705,0.26281598775655374
11.415663809273434,0.7365460175838302,0.26281174813740371
11.433252335227937,0.73655401075734117,0.26280515446607
11.450867960460288,0.73653799631608607,0.26280681331104566
11.4685107267233,0.73654221848734425,0.26281838336468055
11.486180675834152,0.7365456994165489,0.26279586650851094
11.503877849674442,0.73651230987189253,0.2628079997868098
11.521602290190293,0.73650470805227297,0.26280052139498467
11.539354039392471,0.73655274521408465,0.26278829649432184
11.55713313935642,0.73653115400024083,0.26279295275063524
11.574939632222495,0.73653787459249254,0.26278964899501572
11.592773560195894,0.73655104399712235,0.2627861041580592
11.610634965546895,0.73651332848512052,0.26279137196907415
11.628523890610882,0.73651720944293442,0.26279331911187642
11.646440377788476,0.73655736080998591,0.26279149326549084
11.664384469545631,0.73655669188825257,0.26279290803604899
11.682356208413697,0.7365339470768002,0.2627816740319559
11.700355636989578,0.73656609479265234,0.26279960777168382
11.718382797935844,0.73654845834821947,0.26278531767710228
11.736437733980726,0.73656177945297319,0.26279374561635016
11.754520487918329,0.73653543027915369,0.26279357577148899
11.772631102608694,0.73653163779445407,0.26277225492807504
11.790769620977885,0.73654406264451833,0.26276977393136292
11.808936086018122,0.73656279983390471,0.26277685301701265
11.827130540787815,0.73655244202377645,0.2627808779457434
11.8453530284118,0.73656880310253092,0.26276837101988548
11.863603592081276,0.73656909540211091,0.2627714793275156
11.881882275054028,0.73655234514632939,0.26277499609457883
11.90018912065449,0.73655865257749775,0.26277687601552552
11.918524172273836,0.73655727799477166,0.26276472576487636
11.93688747337011,0.73655908355933675,0.26278068140868971
11.955279067468281,0.73658761767740144,0.26276435923115615
11.973698998160399,0.73656999342457208,0.26275510286646292
11.992147309105716,0.73656947175675747,0.26274672090512041
12.010624044030678,0.73658097362354813,0.26275666915483925
12.02912924672915,0.73657586396790531,0.26276030551695428
12.047662961062457,0.7365856765192389,0.26276013934023579
12.066225230959509,0.73657040053408018,0.26276680059788482
12.084816100416907,0.73657736611946378,0.26275810705286229
12.103435613499002,0.73658313889813865,0.26276560054647868
12.122083814338076,0.73657734518769868,0.26277217128390307
12.140760747134392,0.73658624136523709,0.26274176055772452
12.159466456156315,0.73661117043612789,0.26276476889541867
12.178200985740418,0.73660674145239857,0.26275224194790253
12.196964380291581,0.73660762825614834,0.26272790056582035
12.215756684283118,0.73658441656351747,0.2627599313529968
12.23457794225682,0.73660433829639527,0.26274248469046124
12.253428198823137,0.73659326451688001,0.26273822892216564
12.272307498661284,0.7365955542165592,0.26272832105728877
12.291215886519247,0.73660029601966137,0.26275443234940449
12.31015340721401,0.73661563752455594,0.26273967143264437
12.329120105631555,0.73661495712610769,0.26275826563981675
12.348116026727086,0.73661366485825464,0.26271835981883629
12.367141215525042,0.73661106261970488,0.26273698798408984
12.386195717119209,0.7365870881739649,0.26273920589047378
12.405279576672879,0.73658995017100981,0.26272758646088928
12.424392839418925,0.73661186098682274,0.26273378246907303
12.443535550659906,0.7366339370669287,0.2627308085789794
12.462707755768186,0.7366091014956041,0.26271955424541454
12.481909500186029,0.73660362482685993,0.26271617323879443
12.501140829425735,0.73660588879245292,0.26272049989002244
12.520401789069679,0.73659800262450659,0.26271886383230625
12.539692424770497,0.73662987170059513,0.26272609399782143
12.5590127822512,0.73662993110171038,0.26272794926894316
12.578362907305172,0.73661431651115772,0.2627221599079711
12.597742845796402,0.73662325307478493,0.26273465308519428
12.617152643659532,0.73663211038901766,0.26273341690602581
12.636592346899974,0.73666249950138207,0.26273298692875591
12.656062001594037,0.73666587814184414,0.2627307688970536
12.675561653888982,0.73662093781861682,0.26271890796849318
12.695091350003198,0.73663188262461665,0.26272898913887532
12.714651136226324,0.73662976589305673,0.2627249070407936
12.734241058919237,0.7366375703134953,0.26271857596553189
12.753861164514314,0.73665225495620479,0.26272202969211084
12.773511499515402,0.73665576005059807,0.26272826783501912
12.793192110498081,0.73661691090715564,0.2627115717629675
12.812903044109651,0.73664604578676962,0.26271291627587745
12.832644347069253,0.73665618901514829,0.2627203722393287
12.852416066168058,0.73665144913406999,0.26272950299942349
12.872218248269304,0.7366528030380578,0.26270204575580614
12.892050940308446,0.73666465366842049,0.26270445345380089
12.911914189293247,0.73666444366017247,0.26271693622240222
12.931808042303897,0.73663803426009755,0.26270716332520916
12.95173254649314,0.73666208380074272,0.26273721783063742
12.971687749086328,0.73668714327988716,0.26269617313092969
12.9916736973816,0.73665009567658613,0.26269802080852206
13.011690438750014,0.7366765515478878,0.26271765472927738
13.031738020635528,0.73665515691051742,0.26269298733279495
13.051816490555266,0.73668090052386936,0.26270071043002008
13.071925896099508,0.73666631815198524,0.26270206002971092
13.092066284931919,0.73665350183191092,0.26269610559271489
13.11223770478958,0.73681414836091552,0.26273678955674268
13.132440203483082,0.73668928018282531,0.26269715873480554
13.152673828896722,0.73668893573624394,0.26268578689822392
13.172938628988572,0.73668449003991965,0.26269890567597959
13.193234651790574,0.73666767361717056,0.26269699576971745
13.213561945408696,0.73668714131799973,0.26269373378282213
13.23392055802301,0.73668767010740288,0.26269455020943311
13.254310537887839,0.73673389010690782,0.26264033511299001
13.274731933331816,0.73668347366400055,0.26267368129368251
13.295184792758073,0.73672026179906192,0.26268817034355574
13.315669164644303,0.73670368987875168,0.26270523120185163
13.336185097542891,0.73670820351475119,0.26269777717080978
13.356732640081047,0.73672481138036749,0.26267856785166854
13.377311840960845,0.73671306338632481,0.2626708065066054
13.397922748959473,0.73669537605993696,0.2626727990007186
13.41856541292924,0.7367048662166813,0.26268688659634737
13.439239881797686,0.73670246619544177,0.26267986523084752
13.459946204567775,0.736701080216147,0.26267622691225889
13.480684430318002,0.73672028191558225,0.26267634481446811
13.501454608202399,0.73671271731070775,0.26266791302009801
13.522256787450807,0.73673305999994687,0.26268349672100261
13.543091017368839,0.7366734655106606,0.26266062191856465
13.563957347338164,0.7367041065940132,0.26266662415088132
13.58485582681649,0.73672791968412499,0.26265297386870856
13.605786505337703,0.73672178828123591,0.26267720050820997
13.626749432512042,0.73671106409024079,0.26266267989094549
13.647744658026177,0.73670294424463889,0.26267978612162357
13.668772231643326,0.73672082740976019,0.26267789558206284
13.68983220320338,0.73673067715105856,0.26267029963176325
13.710924622623022,0.73670824190731632,0.26265997579751044
13.732049539895856,0.73673912261582974,0.26266389453580219
13.75320700509247,0.73676147285963656,0.26266891890445898
13.774397068360644,0.73675249127003162,0.26264994777092943
13.795619779925405,0.73671373050904765,0.26263916990583236
13.816875190089162,0.73671959721642755,0.26266955105658313
13.838163349231843,0.7367178212599228,0.26264050691416752
13.859484307810943,0.7367521230303119,0.26264825213054716
13.880838116361781,0.73672921328745677,0.26263430637637764
13.902224825497495,0.7367567339730966,0.26263731023513731
13.923644485909179,0.7367255979762517,0.26263895583491448
13.945097148366068,0.73673204159506667,0.2626533008595725
13.966582863715608,0.73674784158028617,0.26265178282314716
13.988101682883586,0.73670672993388775,0.2626447973108777
14.009653656874262,0.73673844123846144,0.26263268097543452
14.031238836770433,0.73672882283863006,0.26264534054584365
14.052857273733689,0.73674389942741048,0.26262630195516895
14.074509019004358,0.73674788082821119,0.2626434822638597
14.096194123901766,0.73673789542946722,0.26264060691240498
14.117912639824294,0.73675600800845764,0.26263390876613407
14.139664618249521,0.73675007863597897,0.26261465557934272
14.161450110734345,0.73677070840524395,0.26261416133311266
14.183269168915047,0.73675735728231839,0.26261269842102081
14.205121844507552,0.73676494565908535,0.26262275368487797
14.227008189307423,0.73677907638966111,0.26261178092231746
14.248928255189991,0.73677212822538451,0.26262364169942526
14.270882094110569,0.73676280205225153,0.26261460646589929
14.292869758104493,0.73675672005770154,0.26260531313517499
14.314891299287279,0.73676697640074085,0.26262552044372317
14.336946769854748,0.73676500049402482,0.26260566052846601
14.359036222083089,0.73678664087133083,0.26261052058396744
14.381159708329132,0.73675619984739427,0.26259008401611306
14.403317281030276,0.73677169659874253,0.26260488678673793
14.425508992704767,0.7367654599837612,0.26260468784698121
14.44773489595176,0.7367624692913618,0.26259680768562771
14.469995043451442,0.73677700210369401,0.26260783105667662
14.492289487965188,0.73677197984014309,0.26258684375431079
14.51461828233562,0.73680394840079433,0.26260147877400514
14.5369814794868,0.73676562744834917,0.26258841512856784
14.559379132424382,0.736772757240725,0.26261553836539997
14.581811294235601,0.73675694284133708,0.26258885141748811
14.604278018089538,0.73677710408462016,0.26259006127967011
14.626779357237181,0.73680743977885155,0.26260324943303665
14.649315365011564,0.73680928226794584,0.26261588951157777
14.671886094827912,0.73678812591544729,0.26258219015950957
14.694491600183683,0.73678926234914399,0.26259905083875362
14.717131934658868,0.73677955598055611,0.26257634123224455
14.739807151915906,0.73680149519273197,0.26257769002827408
14.762517305699975,0.73679628457383906,0.26258451582431386
14.785262449839045,0.73681822506605477,0.26258248112837662
14.808042638244022,0.73680320540786592,0.26258401728463959
14.830857924908887,0.73680763102408453,0.26258051043423003
14.853708363910771,0.7368021679164436,0.26259125804489891
14.876594009410143,0.73680343108240609,0.2625786364884739
14.899514915650983,0.73681875464994939,0.26257619582239017
14.922471136960734,0.73682408841381708,0.26258071012315992
14.945462727750622,0.73681322896912016,0.26256869851866427
14.968489742515683,0.73682962584741807,0.26256510891106583
14.991552235834911,0.73681213370842824,0.26256636123674715
15.014650262371417,0.73683613201031284,0.26257427530833805
15.037783876872483,0.73681030457253582,0.26256439312842161
15.06095313416977,0.73683279717097294,0.26255520123870868
15.084158089179473,0.73681990522278207,0.26257031722349089
15.107398796902297,0.73682546157403539,0.26256415533518751
15.130675312423756,0.73683226222162668,0.26256201589034156
15.153987690914223,0.73683272649972442,0.26256017289909528
15.177335987629071,0.73679244948291645,0.26257192700097559
15.20072025790882,0.73682457935859857,0.26257001373276451
15.224140557179194,0.73683306395331916,0.26254058976639422
15.247596940951427,0.73682976647473741,0.26256211858241596
15.271089464822168,0.73687624393194362,0.26256896004522418
15.294618184473789,0.73680786062429593,0.26255680458620662
15.31818315567444,0.73681290857150716,0.26255278672866972
15.341784434278189,0.73684078315564216,0.26254177317485305
15.365422076225181,0.73681139041077892,0.26255300008454491
15.389096137541705,0.73686475114121874,0.26254570777801745
15.4128066743404,0.73683713603164014,0.26255100703585432
15.436553742820406,0.73686524621387195,0.26254827246643675
15.460337399267358,0.73686496658386125,0.26254790665781591
15.484157700053677,0.73686442097920002,0.2625505160739019
15.508014701638619,0.7368688589394502,0.26253750091204042
15.531908460568431,0.73685813696210478,0.26255234836624353
15.555839033476502,0.73685938800489303,0.26254402809158428
15.579806477083425,0.7368488068207536,0.26252968078538408
15.603810848197238,0.73688785177071292,0.26252152106632864
15.627852203713481,0.73686657189998628,0.26254169996682197
15.651930600615364,0.7368652426723602,0.2625281131415711
15.676046095973886,0.73688573655712897,0.26252138577017953
15.700198746947983,0.73689221011036554,0.26253377033029734
15.72438861078467,0.73687180924807272,0.26252559299902406
15.748615744819118,0.73686825899422215,0.26250983501545133
15.772880206474868,0.73687384830809644,0.26253046492347148
15.797182053263985,0.7368617891873982,0.26252532049788807
15.821521342787046,0.73687814309978306,0.26251799177077945
15.845898132733456,0.73686342552260808,0.26252419161021628
15.870312480881427,0.73688306010945115,0.26253608148847335
15.894764445098287,0.73687508609724317,0.26249385781004553
15.919254083340471,0.73686847566294145,0.26252028656959858
15.943781453653678,0.73684863788451571,0.26251879946489198
15.968346614173081,0.73685206184995067,0.26251339585010891
15.992949623123456,0.73687726882572047,0.26250568858997297
16.01759053881921,0.73688106695862943,0.26248790722493609
16.042269419664645,0.73686287548885843,0.26251081471953613
16.066986324154044,0.73686460434084611,0.26250288082987916
16.091741310871807,0.73687377158172618,0.26250364598056397
16.116534438492618,0.73689620852143944,0.26249841058781853
16.141365765781497,0.73688254073710113,0.26248162473223574
16.166235351594118,0.73687705965915462,0.26249494216484176
16.191143254876717,0.73690262216123792,0.26250241596485407
16.216089534666434,0.73688617621868568,0.26250922880081784
16.241074250091334,0.73691817945534566,0.26249092460207513
16.266097460370588,0.73690566587060957,0.26248691780385952
16.291159224814631,0.73690112156431786,0.26248966223457676
16.316259602825223,0.73692584743984213,0.26250219698638033
16.341398653895677,0.73691013676475692,0.26250153885595978
16.366576437611034,0.73688089496758502,0.2624941403243643
16.391793013648027,0.73690963003932297,0.26248550582469599
16.4170484417754,0.73690989468867829,0.26247582113989976
16.442342781853977,0.73692181411491076,0.26247943320955536
16.467676093836811,0.73690655614890377,0.26248199557785001
16.493048437769335,0.73692681410058214,0.26248136520677118
16.51845987378946,0.73691816770202756,0.26247712709543081
16.543910462127783,0.73692087276057106,0.26248585680263253
16.56940026310771,0.73692182287758157,0.26248776396883838
16.594929337145565,0.73693585264563688,0.26247903952200641
16.620497744750772,0.73693648090413932,0.26248005916466921
16.64610554652598,0.73693729871662506,0.26246728965300331
16.67175280316723,0.73691547942732338,0.26248196193269452
16.697439575464021,0.7369437558723515,0.26247275298874423
16.723165924299558,0.73691480571017953,0.26245129704627534
16.748931910650896,0.7369265814048902,0.26245035564772817
16.774737595588935,0.73692701638265168,0.26246374333471284
