#Digilent WaveForms Network Analyzer - Bode
#Device Name: Discovery2
#Serial Number: SN:210321A18F9B
#Date Time: 2017-05-22 12:06::47.664

Frequency (Hz),Channel 1 Magnitude (dB),Channel 2 Magnitude (dB),Channel 2 Phase (°)
20.000000000000021,0.15035555593014263,-16.906917479024408,-120.68437141873763
20.013821666009239,0.1530992262572608,-15.962632826054231,-122.82509462342401
20.02765288394102,0.15235702841707766,-15.420107653999001,-124.57398474701765
20.04149366039654,0.1562247311555377,-16.778125969020145,-120.15804610534947
20.055344001981531,0.14756712106710243,-17.071706201204368,-116.36289097979574
20.0692039153063,0.15060528783746643,-16.495166978099324,-120.35254913383848
20.083073406985712,0.15450882380834821,-16.288434957438518,-120.79243838714905
20.09695248363921,0.14986495849776374,-16.411638579662963,-119.12297987664881
20.11084115189081,0.15311531523318375,-16.932883017600165,-117.02353487463751
20.124739418369124,0.1551552500262674,-16.28792510695634,-123.29499946486771
20.138647289707265,0.15308517958633783,-16.218137425276417,-121.71482199731024
20.152564772543055,0.15385642855266438,-15.7306267465034,-122.86032458711524
20.166491873518837,0.1542091940575557,-16.22674368791705,-121.41732853709256
20.180428599281505,0.15589189209448859,-16.220799938421877,-120.24360427285789
20.194374956482591,0.15204308232493022,-16.835264563324422,-118.21200679853743
20.208330951778283,0.15056597004420938,-17.061618934950808,-116.83311860284817
20.222296591829245,0.14945886189673413,-16.650090538482132,-119.39121527501688
20.236271883300827,0.15260784154777757,-16.53322486978535,-118.94181158186511
20.250256832862963,0.149929588358515,-16.347370481261898,-120.1611700943108
20.264251447190198,0.15039135675875256,-16.360029496956358,-121.79565939409028
20.278255732961693,0.15244785299144784,-16.268342607957823,-120.04904590280501
20.292269696861215,0.15138456154813973,-16.358873839847025,-120.05231004718874
20.306293345577167,0.15217976654670232,-16.07837466538977,-122.97984759135659
20.320326685802556,0.15060455903688852,-16.902506836052215,-121.2982246809043
20.334369724235025,0.15127603018624214,-16.700340888593782,-118.30794638751229
20.34842246757686,0.14801902270961392,-16.426312637099041,-120.84120226250337
20.362484922534907,0.14857951532037031,-16.522495862947679,-118.3752674316947
20.376557095820758,0.15172164779636729,-16.06402851815831,-123.14100805392452
20.390638994150589,0.14950517783564929,-16.943807058833315,-118.23838295086749
20.404730624245172,0.15648735597893848,-16.315587176916427,-121.22078511881828
20.418831992829968,0.150360147418518,-16.906763048724077,-118.98278142112243
20.43294310663515,0.1544089322705294,-16.231929370680195,-120.44741013005618
20.447063972395416,0.14909387864137441,-16.246697191345461,-119.60959572225237
20.461194596850191,0.15056293354725778,-16.90072167918342,-118.60299491807297
20.475334986743555,0.15206910785188241,-15.7710240806513,-122.78924163198282
20.489485148824237,0.15438169968953716,-16.027047772412299,-121.28760087646444
20.50364508984563,0.15034150138375738,-16.506813112890843,-120.52789515361425
20.517814816565799,0.15324445807983134,-15.995787267333828,-122.80774561989918
20.531994335747481,0.15272073712720602,-15.964579592549269,-121.98247304261298
20.546183654158071,0.1548848024064492,-15.9939625350237,-122.47960511839976
20.560382778569661,0.15041385735929422,-16.646237684688487,-117.54763879396693
20.574591715759038,0.15159297897829693,-16.706747278025929,-117.14856315093013
20.588810472507578,0.15080309772963571,-16.093709508922071,-122.59627390812385
20.603039055601485,0.14985578356431553,-16.150431361517882,-121.07204324436132
20.617277471831574,0.15126390268863363,-16.223087023948683,-121.18890379407952
20.631525727993328,0.15273306243177678,-16.295102824291426,-120.50970813545572
20.645783830886948,0.15209315463739101,-15.989844815079397,-122.89430075654562
20.660051787317421,0.15159248771311856,-16.086930262554326,-121.92573329774098
20.674329604094297,0.14951893895582624,-16.876494357340697,-118.2968414676662
20.68861728803191,0.15337527620313357,-16.571318943331676,-120.504958511479
20.702914845949294,0.15309288375886934,-16.31426522952804,-121.80574310113286
20.717222284670193,0.15101571882385562,-16.232645815129235,-121.95582997982298
20.731539611023067,0.15673062311488717,-16.616233870525988,-120.9846810974481
20.745866831841088,0.14929830507600311,-16.302734320566742,-120.44411796211787
20.760203953962158,0.14968277134170502,-15.814522624766859,-122.78696973504314
20.774550984228906,0.15002416958749074,-16.322103124910189,-122.65836521746779
20.78890792948868,0.15107396501561049,-16.461805075115535,-120.49129243038792
20.803274796593591,0.15007964167773286,-16.075756973969678,-119.87732297281306
20.817651592400392,0.14813860257911696,-16.009741067418105,-123.14126536028267
20.832038323770714,0.15283879935806455,-16.004072435304771,-120.61516259100476
20.846434997570853,0.14712710621437089,-16.370289352428884,-119.69895613421794
20.86084162067182,0.15010577609447612,-16.088312849753944,-120.17154104110691
20.875258199949403,0.14929469776948223,-16.443947768370244,-121.30813349218296
20.889684742284217,0.14936595661252045,-16.51076592851636,-122.16534766849804
20.904121254561506,0.14959594783252089,-16.110027865699251,-122.54024823299444
20.918567743671343,0.14968462396838783,-16.45032683595495,-122.01854390834649
20.933024216508553,0.14860327945931545,-15.966175744759763,-122.4841919281582
20.947490679972727,0.15132696924529865,-16.936763354928555,-118.22012774718823
20.961967140968213,0.15188808792076816,-15.996163614865406,-121.57024194104963
20.976453606404149,0.15604112351794891,-15.570837551233634,-125.04951535290624
20.990950083194427,0.14828995593435418,-16.820426218814887,-120.923330587477
21.005456578257732,0.15061104310475235,-16.315107136766194,-120.29399293946713
21.019973098517521,0.15226020144638838,-16.811752249086279,-118.52961035199547
21.034499650902067,0.15147551859104802,-16.388217481565015,-119.4841458326411
21.049036242344336,0.15116041748023687,-15.514741629559968,-125.00950600865254
21.063582879782217,0.15006357597548955,-16.255005680155289,-121.57662815753876
21.078139570158328,0.14535716170661361,-16.87175292193303,-119.71762783201657
21.092706320420028,0.14933793324476671,-16.913892516918406,-119.73881604978511
21.107283137519595,0.15174531986361189,-16.5855121797258,-122.33036860046643
21.121870028414058,0.15205440867108921,-15.969682479271308,-122.52168719258718
21.136467000065199,0.15080099379243941,-15.792142057097355,-124.77079549545336
21.151074059439665,0.15327484996413043,-15.902652428692308,-123.42779991715398
21.165691213508975,0.15179252806697924,-15.82815999557107,-123.81698964404288
21.180318469249347,0.1552502388514877,-16.077533015731163,-123.81115954134592
21.194955833641888,0.14472099858631904,-16.079262045081968,-120.6890502873665
21.209603313672524,0.15099217442511953,-16.055510777448191,-121.75377372815767
21.224260916332003,0.14901436369987586,-16.250040706860869,-121.77100275937772
21.238928648615904,0.15242695891546709,-15.74840349699504,-124.90003479827503
21.253606517524641,0.15396684141644293,-16.15604338278543,-122.62105950493641
21.268294530063471,0.15525801299440128,-16.112965180414374,-121.68237515682905
21.282992693242484,0.15318677869986322,-15.466805019663841,-125.91720029024627
21.297701014076612,0.15279912875260263,-15.614741452497096,-125.46483657862844
21.312419499585673,0.15176050038394234,-16.940110370036333,-119.30403888672579
21.327148156794234,0.15519298091426356,-15.566548997660487,-124.518870156324
21.341886992731848,0.15441645377670343,-16.891954908279804,-119.27281727460075
21.356636014432869,0.14977890274057407,-15.513809370452723,-125.86353082641166
21.371395228936468,0.1566744900937343,-15.300749977557718,-125.41061043478022
21.386164643286712,0.14783675466223214,-16.024274638532422,-122.93049217958354
21.400944264532619,0.15081179484759211,-15.371067298605078,-124.51744019159598
21.415734099727931,0.14766888027219,-16.28891517010327,-122.07323266901133
21.430534155931365,0.15205451613124171,-15.589514748549757,-124.6290790515817
21.445344440206483,0.14844839375382532,-15.842173766647822,-123.43923783554391
21.460164959621743,0.15018952307538724,-15.364544202252308,-125.8120788678808
21.474995721250476,0.15228919958830534,-15.773581474386521,-123.16027892396714
21.4898367321709,0.15065391570090783,-15.279953887484563,-125.3780534136246
21.504687999466132,0.15524390914714309,-15.560622199692265,-125.22457184661749
21.519549530224186,0.15586043244167552,-15.377784095274647,-125.69281746476648
21.534421331537967,0.149433050521602,-16.256640037626418,-122.27761238116361
21.549303410505306,0.15113238844190255,-16.283042910764923,-122.54619719504637
21.56419577422885,0.15120402180601908,-16.201606759576229,-123.1886386896048
21.579098429816284,0.15340243466543421,-15.399718883553103,-125.53700862241918
21.594011384380153,0.153484588281807,-16.084789304849632,-123.55671847015616
21.608934645037863,0.14791849378275251,-16.430818686464637,-119.83647662843045
21.623868218911781,0.14799764535889592,-16.048231317206934,-122.65377541860764
21.638812113129259,0.15270937172269439,-16.264169109378077,-123.69068797298593
21.65376633482245,0.15276702358380542,-15.879671434009527,-122.88650449754546
21.668730891128529,0.15488692658628328,-16.175338321508125,-122.9229875626315
21.683705789189574,0.1507425587375438,-15.203939345767568,-126.42600072979367
21.698691036152589,0.15302420412138892,-15.583275268849359,-124.57382711249288
21.713686639169534,0.15027424152616536,-15.690623177874574,-123.54815828511418
21.728692605397303,0.1522991376811042,-16.052165727964127,-123.94921376661658
21.743708941997742,0.15350735452909106,-16.314572037672161,-120.88689356857427
21.758735656137638,0.15279662851411324,-15.909471954438519,-122.89980393880936
21.773772754988741,0.14904860734276792,-16.112012684095987,-122.68305152564642
21.788820245727766,0.15324558202122643,-15.651622787500393,-123.98545405737956
21.803878135536308,0.15198086373400219,-15.690619285217448,-124.84949262237993
21.818946431601059,0.14869347569759414,-16.402312608522397,-122.45572033129206
21.834025141113617,0.15075976830838989,-16.080190196797759,-123.52820338030145
21.84911427127048,0.15012273730097914,-15.942544594139088,-123.00483577088815
21.864213829273197,0.15293842804540467,-15.217878936702871,-127.08038161760238
21.879323822328335,0.16021655836171519,-14.898188135917218,-128.37431439220643
21.894444257647326,0.15351803199199121,-15.318706026190753,-125.92537291411954
21.909575142446656,0.15445097662553176,-15.322849723799427,-126.25437943231771
21.924716483947794,0.15414422502904568,-15.47827757621892,-126.49821920609453
21.939868289377191,0.15482606753396533,-15.896021221703936,-123.70043925283997
21.95503056596629,0.15470098144989058,-16.308146163636323,-123.926000059103
21.970203320951541,0.14947929289405815,-17.242986545278928,-116.63145510214619
21.985386561574376,0.14970646769137397,-16.13892645160638,-122.08818260607838
22.00058029508126,0.1527144272853368,-15.531597238935905,-127.10588378368233
22.015784528723639,0.14924868094047089,-16.298147494884518,-116.84262512365092
22.030999269758009,0.154594660955856,-16.567108248847209,-123.38488400523688
22.04622452544578,0.15808656363657944,-15.672719584215081,-125.6806190122788
22.061460303053529,0.15492538389733257,-15.682720592279304,-124.70474803049103
22.076706609852774,0.14989793651569597,-15.851835823424205,-123.78821075171955
22.091963453120016,0.15707504578535442,-15.409019573178075,-125.8776957486815
22.10723084013684,0.15433205477249856,-14.78853229730089,-129.12360366779535
22.122508778189914,0.15173046440163315,-16.111659179917183,-122.84295935709117
22.137797274570818,0.15639741149241282,-15.359574470080535,-126.52205777871305
22.153096336576262,0.15037268295680858,-15.91406574669859,-123.24108592242568
22.168405971507973,0.15156739805978303,-16.081122079867246,-122.5313764290166
22.183726186672722,0.15500739436390884,-15.74738985085421,-124.34216647897131
22.199056989382328,0.15572565514251838,-15.416618898033169,-127.03015882755248
22.214398386953672,0.15233921701631933,-16.081988849285423,-124.23014185316178
22.22975038670868,0.15437578080856035,-16.305863235321389,-123.54631926860448
22.245112995974349,0.15449882457227262,-15.16057804177191,-128.42810362090853
22.260486222082733,0.1480612225760948,-16.228365776808761,-120.72441552533309
22.27587007237095,0.15455710751059712,-15.621772813158582,-123.59279780772566
22.291264554181204,0.15314387818550654,-15.450135540326571,-126.55444586867144
22.306669674860757,0.15311838413074874,-16.072739209524286,-123.17153836601561
22.322085441761971,0.15554052624045661,-15.362354639064344,-127.16463451551596
22.337511862242213,0.15152723015113539,-16.109810488907755,-122.0394191219244
22.352948943664057,0.15497074092860535,-15.272475877276525,-127.61006058507087
22.368396693395102,0.15185699698091434,-15.672764447299652,-125.41933023165934
22.38385511880799,0.14848677472857616,-16.225082232766006,-123.18192509661402
22.399324227280509,0.14917278412175977,-15.847857337997596,-123.76599663616827
22.414804026195615,0.1551568364669573,-15.476597387444105,-126.24422708334457
22.430294522941224,0.1503339716057088,-16.117894603535522,-123.52883047647924
22.44579572491045,0.15182926366726637,-16.325682002909115,-121.91069360213767
22.461307639501491,0.15120778504817528,-15.624562942800964,-125.44941368953384
22.476830274117663,0.1520972596334749,-16.288970523094303,-121.39345953733331
22.492363636167404,0.15843802225047762,-15.203578821357631,-127.26496781690527
22.507907733064254,0.15307947871969782,-15.671862419900002,-124.59041525307427
22.523462572226887,0.1526438577362017,-15.351338322542436,-124.58270491076321
22.539028161079109,0.152499192472277,-15.884936400958377,-124.68578948169224
22.554604507049849,0.14968315310784863,-16.460672423690951,-121.47204423706449
22.570191617573194,0.15500512553503754,-14.857389027658478,-129.04663703103287
22.585789500088278,0.15389475986978812,-15.149367732011703,-127.98999499662447
22.601398162039516,0.15153601597212246,-16.749729143289429,-121.45991527724227
22.617017610876392,0.14983243674648147,-16.066046975400759,-124.00051587759658
22.632647854053499,0.15109755889307303,-15.729237878955002,-126.1290452190474
22.648288899030621,0.15570912322134314,-15.912492717430188,-123.50562801717196
22.663940753272779,0.15279141732223525,-15.675284396601164,-125.73058478584646
22.679603424250001,0.15068915707361757,-15.995319560605134,-121.8057322805946
22.695276919437578,0.15446877725556077,-15.529744241782907,-126.21659742768519
22.710961246315936,0.15008357322125465,-15.723845752373666,-123.60836144937531
22.72665641237068,0.1502211877920453,-15.564339062850724,-126.50436298286633
22.74236242509258,0.15170993202128452,-15.572230914108458,-124.77618884108868
22.758079291977594,0.15432002524111141,-14.734791511160761,-130.52944067026695
22.773807020526846,0.15305320261931282,-15.556851761957182,-125.62192208501662
22.789545618246649,0.15832856448620125,-15.130622826878792,-128.69785497331924
22.80529509264851,0.15386327839862868,-15.482560408708315,-127.05188406082996
22.821055451249148,0.15176532657917985,-15.786486202977892,-125.336111876595
22.836826701570374,0.15317082450364647,-15.350082913607404,-125.83131949692212
22.852608851139347,0.15507778662360347,-15.601664541723267,-125.65857105856763
22.868401907488362,0.15363903389502465,-15.800013470232507,-124.35631126366074
22.884205878154852,0.15442687238969352,-15.562004787762373,-126.13396486194429
22.900020770681532,0.150711908776267,-15.941962399176964,-121.53555398010562
22.915846592616379,0.15565263599774232,-15.526503175565963,-124.82672674073922
22.931683351512461,0.15233791485643858,-16.104589480201717,-120.86107594387313
22.947531054928152,0.15388733301625218,-15.760097928796093,-122.88678228944717
22.963389710427016,0.15093153719611779,-15.619629806508641,-125.78475647972132
22.979259325577868,0.15375201878076233,-14.95065161533512,-129.18841618722567
22.995139907954734,0.15161611820217158,-15.758313597231837,-124.11813281262732
23.011031465136885,0.1581698702041659,-14.843176660906305,-129.9803141235565
23.026934004708824,0.15486087821469643,-14.650335758956579,-130.59686154577639
23.042847534260293,0.15502801147730483,-15.235588191384053,-126.07280206860396
23.058772061386289,0.15641099127582347,-14.686292455866878,-129.61465670978254
23.074707593687066,0.15656127930620353,-14.794675856836243,-129.73570757813152
23.090654138768059,0.15944247921437879,-15.015919618528063,-129.51485704516307
23.10661170424008,0.1500657260149495,-15.519305207052181,-125.30341122178747
23.122580297719139,0.15296188997088858,-15.32231065255978,-127.77042429933337
23.138559926826456,0.15100152121659649,-15.706297676279577,-123.53096841764591
23.154550599188578,0.15274715560338475,-15.301306280304441,-127.30574000805588
23.170552322437377,0.15439548041764317,-15.368560176347664,-127.79192664882081
23.186565104209873,0.15292352392085734,-15.296142498824434,-127.28112602374132
23.202588952148439,0.15126598166939892,-15.366370316827926,-127.21907356183853
23.218623873900729,0.14950073849166018,-16.56430422341036,-121.81623034619226
23.234669877119661,0.15287696313383115,-15.157984982850675,-126.89526841995202
23.250726969463461,0.15501427858774849,-14.661759426607418,-131.41766304972819
23.266795158595635,0.15537714532330288,-15.061500160724773,-126.50671404814467
23.282874452184984,0.15083089986195261,-15.721850219777947,-121.97537157986805
23.298964857905617,0.15410797380749247,-15.068282034862381,-128.11346065282575
23.315066383436939,0.14665702433648919,-15.685246755710324,-127.25920126493286
23.331179036463674,0.15211307633842311,-14.523726087084652,-129.86418088959624
23.347302824675836,0.1538126746035588,-15.341303998453801,-126.95585821873934
23.363437755768771,0.15223914552329995,-16.025950501718224,-122.62352583809249
23.379583837443164,0.15339633216992632,-15.982302148793162,-125.06865234330634
23.395741077404949,0.15122730674017701,-15.400606736312518,-127.41577901254234
23.411909483365424,0.15129726522375869,-15.127113668999755,-127.824438487457
23.428089063041309,0.15485725152656235,-14.627361932366574,-128.99833670461697
23.444279824154485,0.14997625990050278,-15.987325721996745,-125.54919144172013
23.460481774432267,0.15434837353125852,-15.714991112546686,-125.86244411530227
23.476694921607368,0.15105936612333451,-15.703401355253476,-126.55334964070938
23.492919273417705,0.15168699194934537,-15.4973592822563,-127.33308387642646
23.509154837606641,0.1546715462432677,-15.015597649977302,-128.57295786299841
23.525401621922857,0.15285533001875265,-15.40639675421825,-126.19018884479229
23.541659634120407,0.14974284702923107,-15.959187410240002,-121.98105871916579
23.557928881958681,0.15583647786347662,-15.165412599758298,-129.35545432428884
23.57420937320245,0.15283036096847741,-16.308743222978691,-121.87899378067101
23.590501115621837,0.15497783993369035,-14.954932571322352,-128.33714219613091
23.60680411699235,0.15416969615162313,-15.79701833473184,-124.39546293005498
23.623118385094855,0.15171087678263651,-16.288163096021179,-120.97546133117893
23.639443927715629,0.15536954506169193,-15.64522943607475,-126.78510512364787
23.655780752646226,0.15320013252239098,-15.924425708869842,-124.44904619831371
23.67212886768375,0.15338093438816913,-15.036807846564253,-126.56707380550631
23.688488280630583,0.14889600937323874,-15.584590453100342,-124.65514724542649
23.704858999294494,0.152358263146741,-15.880113957561992,-126.51078211738651
23.721241031488663,0.15354375159391401,-14.825519693289541,-126.76601710533072
23.737634385031757,0.15082201632423989,-15.343543805209734,-127.52793167113741
23.754039067747698,0.15222628181765704,-14.753800053303367,-126.54950924775247
23.770455087465916,0.15806627871120738,-15.193342681300008,-126.33108894969524
23.786882452021221,0.15393653022121948,-15.043763448189971,-128.40614423388234
