#Digilent WaveForms Network Analyzer - Bode
#Device Name: Discovery2
#Serial Number: SN:210321A18F9B
#Date Time: 2017-05-22 15:02::26.636

Frequency (Hz),Channel 1 Magnitude (dB),Channel 2 Magnitude (dB),Channel 2 Phase (°)
20.000000000000021,0.16582283207928036,-14.762877822318888,-165.99046992728577
20.013821666009239,0.16995708796952888,-14.789360161100021,-165.88228049065398
20.02765288394102,0.16949909098151178,-14.787850347122735,-166.04575747245815
20.04149366039654,0.16743877363190077,-14.770095164018482,-166.04248955295898
20.055344001981531,0.1684042104134037,-14.772441314868146,-165.97869108857611
20.0692039153063,0.17016863159087758,-14.784861322437592,-166.07118962068785
20.083073406985712,0.16890326400636538,-14.747775077571548,-165.99963343271878
20.09695248363921,0.17320421193626151,-14.769621822694695,-166.03894694280984
20.11084115189081,0.17141754813642632,-14.788836017736527,-166.2009326587029
20.124739418369124,0.1692181728568172,-14.772411613813862,-166.01101566695465
20.138647289707265,0.16746166718677433,-14.766404795716749,-166.11313952331631
20.152564772543055,0.1696605080564588,-14.771567271998165,-166.12018484016846
20.166491873518837,0.17195944876044961,-14.775219897782396,-166.1363043453282
20.180428599281505,0.16993420556668107,-14.767130070955954,-166.17789621666543
20.194374956482591,0.1687530109273368,-14.765250721490178,-166.16441838522567
20.208330951778283,0.16865261408826537,-14.760484592493064,-166.19243319887246
20.222296591829245,0.16943507860263257,-14.761040133536653,-166.37554456063577
20.236271883300827,0.16824802059604002,-14.760209711543862,-166.31924900310648
20.250256832862963,0.16716123112843556,-14.759516979398871,-166.2865582898967
20.264251447190198,0.17099574627095704,-14.768080462850751,-166.30262200774723
20.278255732961693,0.17004906537163103,-14.754250557181006,-166.34835951655617
20.292269696861215,0.1721915170762903,-14.755806481704589,-166.35020668078906
20.306293345577167,0.17324107888582879,-14.762684549757655,-166.41270025525603
20.320326685802556,0.16970965942699684,-14.752868714655534,-166.42885278686026
20.334369724235025,0.17002436505790555,-14.764442540612013,-166.29947401802025
20.34842246757686,0.17046568968992928,-14.755746701702916,-166.44204114953317
20.362484922534907,0.16894348352109712,-14.754034221063542,-166.44036016482499
20.376557095820758,0.16700177778340222,-14.756210218079433,-166.37068327309322
20.390638994150589,0.16679829276252034,-14.762747247047734,-166.56062137256677
20.404730624245172,0.17078867089998889,-14.758807723297718,-166.53424020863247
20.418831992829968,0.16867641740160472,-14.739080386037987,-166.43172768366159
20.43294310663515,0.17252292850096501,-14.761241473300444,-166.38682824844355
20.447063972395416,0.16827864403148468,-14.745128505691163,-166.44822798326223
20.461194596850191,0.16971999465639517,-14.749022011691324,-166.52968620921052
20.475334986743555,0.1681342502958435,-14.749541863093418,-166.547132092195
20.489485148824237,0.16993323932870907,-14.751382901773587,-166.62177026544225
20.50364508984563,0.17016893942075811,-14.759922361631229,-166.61380643188568
20.517814816565799,0.17202391204612047,-14.765680641087471,-166.61389508344439
20.531994335747481,0.16748914864304246,-14.738983019646481,-166.64016078643158
20.546183654158071,0.171212837959488,-14.754510984858358,-166.69352138218377
20.560382778569661,0.17006469263705207,-14.743167180784551,-166.62346387922952
20.574591715759038,0.16545670733747866,-14.741922972417571,-166.7599664826644
20.588810472507578,0.17071500873628995,-14.749522402382034,-166.69062293087262
20.603039055601485,0.17054565289249712,-14.734847319651074,-166.75094557995035
20.617277471831574,0.16833613846368456,-14.747841532215366,-166.69594197935439
20.631525727993328,0.16867125399643879,-14.750816001575938,-166.73161454459452
20.645783830886948,0.16862891583747971,-14.727367493827153,-166.68762235672517
20.660051787317421,0.17305723409140686,-14.723965952574938,-166.8085052507347
20.674329604094297,0.1687240680512149,-14.731379062457799,-166.77067149748561
20.68861728803191,0.17093580724534757,-14.739385589720788,-166.83326059487334
20.702914845949294,0.169344555575176,-14.732201001671486,-166.84241693737846
20.717222284670193,0.16818580746603279,-14.730230325014835,-166.83525607148351
20.731539611023067,0.1714326928261681,-14.74598733905589,-166.79283271222423
20.745866831841088,0.17185731885529376,-14.741749230865031,-166.89577268511019
20.760203953962158,0.1674340782855249,-14.720650247409715,-166.80720193320983
20.774550984228906,0.17046279051866367,-14.741868222242188,-166.88910796660068
20.78890792948868,0.16735759644551951,-14.732658424957069,-166.92310336109455
20.803274796593591,0.16777501968680761,-14.732390213769603,-167.01275105078057
20.817651592400392,0.16916748749946833,-14.737495642721345,-166.9705070403277
20.832038323770714,0.16795463036996358,-14.734795196088717,-166.94965615952873
20.846434997570853,0.1671576376458789,-14.735228868223246,-167.00429053551684
20.86084162067182,0.17009994712931756,-14.727163626197939,-166.91213601380127
20.875258199949403,0.17092930257415209,-14.748610910593252,-167.07111529556471
20.889684742284217,0.17062845647446426,-14.733664632490777,-167.01881567103683
20.904121254561506,0.17072579203355737,-14.729869872090939,-167.09127735985567
20.918567743671343,0.16808482334338343,-14.721636809347721,-167.01253103934607
20.933024216508553,0.17079337220134636,-14.737805121240555,-167.10820848057949
20.947490679972727,0.17016646580748768,-14.734712436197601,-167.13552565245666
20.961967140968213,0.17178641073616929,-14.735345999631919,-167.14449727813158
20.976453606404149,0.16878000263463769,-14.725177341279723,-167.11886454915611
20.990950083194427,0.16874991152819083,-14.724965480537261,-167.24962103699076
21.005456578257732,0.16933986011398602,-14.748501208847424,-167.16059691144349
21.019973098517521,0.1680799724133149,-14.723703569777008,-167.2253843134927
21.034499650902067,0.17299459163423797,-14.715261248559923,-167.17150017341473
21.049036242344336,0.1670652200200394,-14.722723333586396,-167.19953988261045
21.063582879782217,0.16921191851122783,-14.723830212861897,-167.25003068202301
21.078139570158328,0.16560534644326383,-14.720112093167216,-167.20897285289729
21.092706320420028,0.16886213552494622,-14.721798369694277,-167.25840390789085
21.107283137519595,0.16967175466310189,-14.714006414407297,-167.35562879866012
21.121870028414058,0.1697739185228162,-14.714297980527443,-167.38902746115289
21.136467000065199,0.17030998994009547,-14.709688082404073,-167.38138402481334
21.151074059439665,0.17064819288888289,-14.73383770174372,-167.35663427074013
21.165691213508975,0.1709242924176865,-14.73617849740104,-167.35323784914428
21.180318469249347,0.16893426999054623,-14.733890109988188,-167.53895853267338
21.194955833641888,0.16483809980280981,-14.73425067103536,-167.34905584588469
21.209603313672524,0.16907162914547785,-14.707739856598693,-167.38480881296832
21.224260916332003,0.16667761742403611,-14.704816368675168,-167.46274430780301
21.238928648615904,0.16731192448177434,-14.716994985605858,-167.42089610866404
21.253606517524641,0.16746149940255617,-14.716418557659841,-167.4615378966962
21.268294530063471,0.16787775144503958,-14.7084990644006,-167.48324772243964
21.282992693242484,0.16911042643851584,-14.71385569589744,-167.41174193223014
21.297701014076612,0.16916234817410031,-14.71064259018487,-167.43898346641544
21.312419499585673,0.17006059835910678,-14.709010779811937,-167.49175799790552
21.327148156794234,0.16768693092779843,-14.696951352311832,-167.45772617100491
21.341886992731848,0.17069715690922779,-14.702321154208732,-167.49895459084951
21.356636014432869,0.16906536972042008,-14.707984533780273,-167.67444195809051
21.371395228936468,0.17030816704823687,-14.69991188524112,-167.6049477378269
21.386164643286712,0.16811623831908626,-14.706386343299842,-167.56192277404105
21.400944264532619,0.17016127003321135,-14.700514414420663,-167.531464305535
21.415734099727931,0.16858312432015554,-14.698477692960907,-167.64816969100673
21.430534155931365,0.17089735403776884,-14.705951639200624,-167.52532467781356
21.445344440206483,0.16788859660628289,-14.70392480811498,-167.66018569794005
21.460164959621743,0.17075232692322584,-14.705309005563198,-167.71221408629106
21.474995721250476,0.16984975553138856,-14.702104497774702,-167.73362119308925
21.4898367321709,0.17261467807468672,-14.726307745116596,-167.6604944807724
21.504687999466132,0.17102173098317597,-14.701927478240295,-167.84890082139572
21.519549530224186,0.17247730727551733,-14.69575654381716,-167.78818265417368
21.534421331537967,0.16714088926960244,-14.704457165649703,-167.72765659829548
21.549303410505306,0.16699489045728141,-14.694642396656262,-167.74557385594994
21.56419577422885,0.17119894121968338,-14.691849201296709,-167.77646473005868
21.579098429816284,0.17223479699265407,-14.722935747746021,-167.84371524401664
21.594011384380153,0.16964136347938219,-14.687301045845416,-167.80737109272258
21.608934645037863,0.1713359103170099,-14.69802575789857,-167.77029433472683
21.623868218911781,0.17233503479414647,-14.683911502742209,-167.88513382106154
21.638812113129259,0.17083379613367694,-14.692000597919169,-167.84138506909903
21.65376633482245,0.16924154032437663,-14.699776414299606,-167.95354657903661
21.668730891128529,0.17032015286841257,-14.706847620522108,-167.8343085765915
21.683705789189574,0.16972915643109315,-14.692460356112424,-167.82901044381515
21.698691036152589,0.17279266334324311,-14.687665732483939,-167.94111832992328
21.713686639169534,0.17000595887327141,-14.700196473124986,-167.98106413904858
21.728692605397303,0.1688407977410766,-14.701660563627852,-167.95722424537519
21.743708941997742,0.16860293133611423,-14.697563606603278,-168.02116246927389
21.758735656137638,0.16853715056934904,-14.689608713346638,-168.01110989461222
21.773772754988741,0.16999567122245351,-14.681318250689408,-168.03422478420413
21.788820245727766,0.16967865315332892,-14.692433756941465,-168.0942221140663
21.803878135536308,0.16772012484840271,-14.690685637688372,-168.06011576268762
21.818946431601059,0.17140649482482631,-14.692606876456626,-168.07107701606455
21.834025141113617,0.17072630248877149,-14.683209005692145,-168.07604075463649
21.84911427127048,0.17125677796089356,-14.690121400275231,-168.13920337499647
21.864213829273197,0.16997035015457515,-14.695820151497541,-168.07381976272197
21.879323822328335,0.16972010558211209,-14.698112711454321,-168.22118021072848
21.894444257647326,0.16872604669803062,-14.692773855660469,-168.19135526934156
21.909575142446656,0.16887548836497196,-14.68827788112829,-168.10225726133964
21.924716483947794,0.16923180727575177,-14.695019476254691,-168.23770288458047
21.939868289377191,0.170154092009938,-14.685959955481644,-168.25904695818372
21.95503056596629,0.16748125386294357,-14.67873974868546,-168.21685339966328
21.970203320951541,0.16599630623914552,-14.669206800600268,-168.22091859020054
21.985386561574376,0.173166388135538,-14.681456947536926,-168.32055073049895
22.00058029508126,0.17036025992311274,-14.691081347815622,-168.30350791503739
22.015784528723639,0.16981809285800231,-14.675706359954262,-168.34314558489623
22.030999269758009,0.17099722202656109,-14.674689132529522,-168.35174546643034
22.04622452544578,0.16916315122709757,-14.674323975035293,-168.21933054271165
22.061460303053529,0.16689803400941502,-14.683580574947579,-168.35268691903801
22.076706609852774,0.16724408177973657,-14.681711065711223,-168.35793616405289
22.091963453120016,0.16952093497604959,-14.677787261603008,-168.34124701829185
22.10723084013684,0.16938963280202227,-14.673338827649342,-168.44642191497516
22.122508778189914,0.17005405738789575,-14.672135647389171,-168.41095410257958
22.137797274570818,0.16676559138720085,-14.665533450944716,-168.34491428904767
22.153096336576262,0.16884793670251499,-14.670301334903137,-168.47402537320392
22.168405971507973,0.17062280326372231,-14.665275617321145,-168.45677149827264
22.183726186672722,0.16739949075541127,-14.669611530390828,-168.39203632818817
22.199056989382328,0.17081420934023794,-14.664320104102606,-168.50298221273084
22.214398386953672,0.16989418097854395,-14.686146804421956,-168.56156853233122
22.22975038670868,0.16852612046411838,-14.664046761704576,-168.56748593914946
22.245112995974349,0.16912416531516564,-14.651498404115596,-168.5056465790741
22.260486222082733,0.16956190935010201,-14.668342778641087,-168.56544591217227
22.27587007237095,0.17057270867512958,-14.668679918037043,-168.56118845178437
22.291264554181204,0.16823724453496658,-14.670754821417979,-168.63209546844837
22.306669674860757,0.1696951110525742,-14.677845987795678,-168.5792921530186
22.322085441761971,0.16851274634699806,-14.660621334281156,-168.62226123993014
22.337511862242213,0.17066986919687072,-14.676160583681735,-168.60661923905627
22.352948943664057,0.167512570277534,-14.667052633381674,-168.599277781762
22.368396693395102,0.16860611226983147,-14.662484217389339,-168.76027548442102
22.38385511880799,0.16541083042404037,-14.654265138014049,-168.70234031337407
22.399324227280509,0.17190176163179774,-14.658994789524568,-168.70740957395213
22.414804026195615,0.16993894068546025,-14.672391445422658,-168.70936171517141
22.430294522941224,0.16995774318855214,-14.672126186081233,-168.81499094071566
22.44579572491045,0.17047701845151933,-14.662077594548883,-168.77749082549727
22.461307639501491,0.16961583691865789,-14.664016221867215,-168.77582963286588
22.476830274117663,0.16860262924385883,-14.669992174952451,-168.79680743381425
22.492363636167404,0.17068002660865225,-14.657700079140671,-168.80971617738362
22.507907733064254,0.17193028082338885,-14.663136605178996,-168.75872183655497
22.523462572226887,0.17244898179367515,-14.658573393698918,-168.80595504691397
22.539028161079109,0.16869958444113464,-14.650505164382309,-168.77132906050144
22.554604507049849,0.17210746562037832,-14.659457001479744,-169.02554634387565
22.570191617573194,0.1696470853605718,-14.659462700178027,-168.90007493660198
22.585789500088278,0.16920037838480112,-14.641221396858789,-168.86795415017812
22.601398162039516,0.17100067338433309,-14.675239002858904,-168.96897300143161
22.617017610876392,0.16808229217794388,-14.658794066119242,-168.90259890458211
22.632647854053499,0.17128092890269242,-14.658107677312913,-168.97651503046413
22.648288899030621,0.16775085763032546,-14.654555105872966,-168.94379173573265
22.663940753272779,0.16921234740436134,-14.640320236825406,-168.99565336091132
22.679603424250001,0.17103282598864594,-14.647474222584098,-169.03755464985841
22.695276919437578,0.17145548872303457,-14.661493207031629,-169.00406069994682
22.710961246315936,0.16980883652213549,-14.664583089620361,-169.03908195265305
22.72665641237068,0.16843915136842313,-14.652130210806471,-169.06106044548369
22.74236242509258,0.16956699294118874,-14.671199835572144,-169.06456410401032
22.758079291977594,0.16963243931885719,-14.657608385282746,-169.03696464432235
22.773807020526846,0.1689236286667995,-14.651550916336419,-169.19880107324192
22.789545618246649,0.1693786078840559,-14.645077706417711,-169.21881686004599
22.80529509264851,0.16935260532994575,-14.653165540665663,-169.167756873125
22.821055451249148,0.16805852253431464,-14.656215385113935,-169.19471726180379
22.836826701570374,0.17170801438830385,-14.654173622699972,-169.07792407725969
22.852608851139347,0.17051139302885629,-14.653199485619098,-169.16231576494556
22.868401907488362,0.17238616376244936,-14.658393052481582,-169.24428717779389
22.884205878154852,0.16942260711979035,-14.654453860165383,-169.19698904878103
22.900020770681532,0.16775157464831544,-14.638427519698114,-169.24186150521982
22.915846592616379,0.17123718240841362,-14.639397298033234,-169.22242429137586
22.931683351512461,0.17260176542652006,-14.630318054050498,-169.16270168361731
22.947531054928152,0.17022618715348475,-14.63498263649984,-169.30605530154028
22.963389710427016,0.16998664803019992,-14.651724935837599,-169.35046271252713
22.979259325577868,0.16763860313883053,-14.62353173108708,-169.34935607375945
22.995139907954734,0.17228024819963536,-14.635240695675,-169.30082647650153
23.011031465136885,0.16769816812851152,-14.620486418897801,-169.35579878457054
23.026934004708824,0.17028566780604229,-14.630719032871056,-169.30260632254834
23.042847534260293,0.17060533168163486,-14.63438282373022,-169.4853799793612
23.058772061386289,0.16894854318660477,-14.634342151923343,-169.3614539072837
23.074707593687066,0.1710007735576049,-14.625657846430247,-169.45024653470449
23.090654138768059,0.17116284109729107,-14.626949845765916,-169.53412134169673
23.10661170424008,0.1739038981733565,-14.649449755139017,-169.42958889958263
23.122580297719139,0.16954752226444089,-14.614419949581643,-169.45872652090839
23.138559926826456,0.17044607783107951,-14.657019007830353,-169.41319142332785
23.154550599188578,0.16956830854209493,-14.631205693993522,-169.48391345577892
23.170552322437377,0.16899616706803322,-14.634436569571427,-169.58491193683278
23.186565104209873,0.17053167843562142,-14.640734163087281,-169.63940701155991
23.202588952148439,0.16808477176729855,-14.631662833084167,-169.51456427646593
23.218623873900729,0.1697664069462457,-14.647561681282379,-169.66554082855123
23.234669877119661,0.16866317705249517,-14.631642264900506,-169.58379397305742
23.250726969463461,0.17037483429969166,-14.620672773735583,-169.67098176797913
23.266795158595635,0.17067132551655045,-14.6314009787811,-169.52504530407006
23.282874452184984,0.17010226799410469,-14.618497700393831,-169.60653641284097
23.298964857905617,0.16985001097694355,-14.635820300890126,-169.72709619272609
23.315066383436939,0.16984093869094435,-14.623822469468273,-169.69473622707736
23.331179036463674,0.1728096763289205,-14.629654600244418,-169.62755467642319
23.347302824675836,0.17018740677401736,-14.644937835992735,-169.67777419893957
23.363437755768771,0.16949839568524502,-14.623820653853578,-169.72838056218825
23.379583837443164,0.17147472610194725,-14.627058489586457,-169.73339151536257
23.395741077404949,0.17008895341313182,-14.628622733173138,-169.80586274474734
23.411909483365424,0.17116937325866763,-14.642716671769275,-169.83366781684236
23.428089063041309,0.17288502403287237,-14.628594015218756,-169.81068021947343
23.444279824154485,0.16832747059240111,-14.615901454325822,-169.78125957997977
23.460481774432267,0.17047775224458442,-14.617145024561484,-169.8408134015192
23.476694921607368,0.17057911272936713,-14.618977102308124,-169.76486795782057
23.492919273417705,0.16832831016370634,-14.612839722455135,-169.85460128612434
23.509154837606641,0.17081890751685341,-14.618928375388705,-169.83754862643639
23.525401621922857,0.16684481371113735,-14.619514009124114,-169.95932297405113
23.541659634120407,0.16895949969060714,-14.638299883300485,-169.79603236769987
23.557928881958681,0.16844272387630768,-14.625281316651947,-169.82262307504749
23.57420937320245,0.16975417959968722,-14.609954397211421,-169.94857862277433
23.590501115621837,0.16991149729189742,-14.614349255857961,-170.0712664050892
23.60680411699235,0.16993085270494429,-14.625181754896413,-169.97635689426926
23.623118385094855,0.16907771987776904,-14.618950244689836,-169.88880608231221
23.639443927715629,0.1701311705428325,-14.627275988529602,-169.94202878723749
23.655780752646226,0.1714393134360736,-14.621579084842626,-169.96012712181289
23.67212886768375,0.17057022885624942,-14.619060871139682,-170.02822291897553
23.688488280630583,0.16967470678198998,-14.642501425869218,-169.99057403786631
23.704858999294494,0.17037584979462478,-14.625972228380482,-170.06759611753628
23.721241031488663,0.16994735441037806,-14.621327023822271,-170.06435959358646
23.737634385031757,0.16736562718188211,-14.624483771820119,-170.03004467797342
23.754039067747698,0.17090996379540327,-14.620646230978187,-170.25182049502797
23.770455087465916,0.17054665311139416,-14.626401468887206,-170.05811018867189
