#Digilent WaveForms Network Analyzer - Bode
#Device Name: Discovery2
#Serial Number: SN:210321A18F9B
#Date Time: 2017-05-22 12:57::11.737

Frequency (Hz),Channel 1 Magnitude (dB),Channel 2 Magnitude (dB),Channel 2 Phase (°)
20.000000000000021,0.16859499598285094,-14.853682398743979,-157.26612069030779
20.013821666009239,0.16791623280409559,-14.934204549896808,-157.06161692283737
20.02765288394102,0.17067852723365035,-14.75235291722986,-158.35738724596803
20.04149366039654,0.16794286198079134,-14.72904134264464,-157.93968786151896
20.055344001981531,0.16479923177996519,-14.698944531080333,-157.67926923679732
20.0692039153063,0.16622632793528325,-14.929939710738205,-155.99419309941976
20.083073406985712,0.16588927065067902,-14.785835060481487,-157.84454542995252
20.09695248363921,0.16749579660634056,-14.839341346689856,-157.79851905288936
20.11084115189081,0.16498888022759725,-14.693874056695142,-157.72926940557343
20.124739418369124,0.1687202540238657,-14.87481082547189,-157.21085205407806
20.138647289707265,0.16685763848143045,-14.868572192977529,-155.83395579688124
20.152564772543055,0.16857170281388162,-14.881951360397485,-157.65192271453128
20.166491873518837,0.16712511231687122,-14.683619679574305,-158.59981644903283
20.180428599281505,0.16588308209245634,-14.815682808022469,-157.55292095079739
20.194374956482591,0.16737895968611999,-14.865119514599778,-157.68517875674468
20.208330951778283,0.16500930697705446,-14.695853048733623,-158.41847162470123
20.222296591829245,0.16708029305799785,-14.915782786530094,-157.41918632116125
20.236271883300827,0.1665443849437051,-14.788047404778037,-158.62795492768106
20.250256832862963,0.17010342992867331,-14.658809006346047,-158.65842220138541
20.264251447190198,0.16686303093024035,-14.657073517494519,-159.25890503112964
20.278255732961693,0.16579016471145347,-14.770412756187362,-156.76224574507748
20.292269696861215,0.16822851424239205,-14.761080829339914,-158.18027662822522
20.306293345577167,0.16690133187686781,-14.793575457365959,-157.17317634746439
20.320326685802556,0.16847401006071805,-14.861350859012092,-157.53344032435172
20.334369724235025,0.16912435488562108,-14.779961177461301,-157.98793809400328
20.34842246757686,0.16598777523358507,-14.741803084858468,-158.17963529404227
20.362484922534907,0.16634693179894747,-14.816438644087031,-157.51972649788729
20.376557095820758,0.16912409034909429,-14.784945710713211,-157.13733375368867
20.390638994150589,0.16725652230246149,-14.75678329003232,-158.34221922436507
20.404730624245172,0.16642612130836523,-14.747012301129466,-158.28862200844608
20.418831992829968,0.1649848375122781,-14.728115901297027,-158.24450589655493
20.43294310663515,0.17022281010746224,-14.877921847397682,-157.70720788752419
20.447063972395416,0.16496937931848979,-14.81517514802251,-158.13316020192377
20.461194596850191,0.16693780902540151,-14.627493188520686,-158.64199136692764
20.475334986743555,0.16806726567769006,-14.703259881206996,-158.27122180646646
20.489485148824237,0.16764541685724871,-14.749725704679225,-157.98541112793484
20.50364508984563,0.16721056131662648,-14.844928722268493,-157.32656989324363
20.517814816565799,0.16902340737512339,-14.780341039618822,-158.41808311439121
20.531994335747481,0.16736889892779427,-14.767848562536921,-158.47903734772484
20.546183654158071,0.16718787029166826,-14.936830999433235,-157.5357660290839
20.560382778569661,0.16825974628121049,-14.766083414467253,-158.36627290112349
20.574591715759038,0.16713698679838745,-14.882084389809089,-157.76179668703918
20.588810472507578,0.16767600797353732,-14.935548685277213,-157.48898908995528
20.603039055601485,0.16584124092712887,-14.568414429011776,-159.20242162734954
20.617277471831574,0.16754802297045529,-14.717932716447617,-159.17400179158608
20.631525727993328,0.16809552281168844,-14.651643040648949,-158.53031822201629
20.645783830886948,0.1664266452914232,-14.771735793717166,-158.1951260399579
20.660051787317421,0.16654722395403704,-14.698108890084487,-158.17678434906477
20.674329604094297,0.16736645525032795,-14.715187501833842,-158.08388678206759
20.68861728803191,0.16587253857395601,-14.730642022261849,-158.06487910401182
20.702914845949294,0.16887583872311954,-14.75096717742484,-158.78330065657377
20.717222284670193,0.1663560973181466,-14.698505265017374,-158.7167250701695
20.731539611023067,0.16723063733870658,-14.726394259944914,-158.26350055631664
20.745866831841088,0.16774177267005089,-14.682762366499185,-158.74828544133001
20.760203953962158,0.16722515183975539,-14.805831783786745,-158.31827413386358
20.774550984228906,0.16811156659400694,-14.880743028284282,-158.02007616433153
20.78890792948868,0.16955776555051216,-14.665341857241296,-159.10147563254733
20.803274796593591,0.16468821501519762,-14.656578313626662,-159.04801126795979
20.817651592400392,0.16764649343641108,-14.544688537538411,-158.73438523274629
20.832038323770714,0.16678454432191428,-14.701622294333918,-157.6666964713159
20.846434997570853,0.16761130325956833,-14.688599146033681,-157.49252647739397
20.86084162067182,0.1683087194309138,-14.780666057200165,-157.44416665124274
20.875258199949403,0.16719658249432445,-14.71466209271725,-158.3429024823549
20.889684742284217,0.17046481336126959,-14.743275555238167,-158.34397882362052
20.904121254561506,0.16459922344428107,-14.68292001492564,-158.48842144971294
20.918567743671343,0.16777523832257726,-14.809662295732075,-158.11386179107851
20.933024216508553,0.1643124596154471,-14.77960484770972,-158.61177791355794
20.947490679972727,0.16535400020467583,-14.87353852592083,-157.44754525846599
20.961967140968213,0.1675845280786066,-14.720099854052142,-157.98409257321913
20.976453606404149,0.16516853395153208,-14.541629439613811,-158.92351977805697
20.990950083194427,0.16740564167219035,-14.663291162125521,-158.85756878945926
21.005456578257732,0.16579400455013382,-14.611054506117959,-159.38238345978345
21.019973098517521,0.16702370290510637,-14.814021232394589,-157.92910811205147
21.034499650902067,0.16897411751772981,-14.662458757100625,-158.66505322391501
21.049036242344336,0.16620043574505716,-14.773187582828784,-157.88534317589429
21.063582879782217,0.1671029805162505,-14.846339469375295,-158.37200031183383
21.078139570158328,0.16726335199734629,-14.743912774313943,-158.33257558878626
21.092706320420028,0.17014413437842935,-14.782144094767983,-158.66226579321545
21.107283137519595,0.1682141804539542,-14.762564026039314,-158.7693965596211
21.121870028414058,0.16868083340088241,-14.636013748417618,-159.61228683437639
21.136467000065199,0.16770271187144276,-14.750482627117513,-158.80125693562877
21.151074059439665,0.16599067315160723,-14.868349236036293,-158.11519464175979
21.165691213508975,0.16801163225353352,-14.783199839464249,-158.01252349834115
21.180318469249347,0.16636330033884553,-14.6326568000277,-159.26782391580204
21.194955833641888,0.16480897286745844,-14.878516206113774,-157.46908751944648
21.209603313672524,0.16509091579249019,-14.801386586786034,-158.52317027748211
21.224260916332003,0.16745225699116992,-14.68905131760968,-158.05391433404588
21.238928648615904,0.16629397716681144,-14.824420024360895,-157.71939013399711
21.253606517524641,0.16635694707768245,-14.551364979468902,-159.71617193155797
21.268294530063471,0.16572204795162152,-14.818288110276715,-158.38393809134732
21.282992693242484,0.16688041885465071,-14.620448895790419,-159.15990026541084
21.297701014076612,0.16790175790054052,-14.919209953930579,-158.07670355476185
21.312419499585673,0.16602322173321613,-14.818164944272699,-158.12110749337066
21.327148156794234,0.16610269365074865,-14.639488849037424,-159.70846307865293
21.341886992731848,0.16964823901513185,-14.720237281711642,-159.17633901205696
21.356636014432869,0.1670610401324861,-14.8947236363669,-159.17255413579426
21.371395228936468,0.16508437302071527,-14.537015687706525,-159.21108604641583
21.386164643286712,0.16412547879415629,-14.719106160860546,-158.96188057316817
21.400944264532619,0.17173677437199333,-14.712693498098048,-157.59629685407782
21.415734099727931,0.16979463520545379,-14.587004050330208,-159.21461160691663
21.430534155931365,0.16667395908443269,-14.690965756844843,-158.94116696047632
21.445344440206483,0.16602011414969073,-14.656538622036805,-159.25769264691471
21.460164959621743,0.16749034209822306,-14.625697447540475,-159.2715439137863
21.474995721250476,0.16704533139955713,-14.767034697369306,-158.47249500036361
21.4898367321709,0.16887929748926053,-14.514106096668495,-158.96142476780153
21.504687999466132,0.167506348882798,-14.806634944737914,-158.19029846662622
21.519549530224186,0.1643027331062055,-14.699950951076559,-158.64401287804583
21.534421331537967,0.16806409071165485,-14.69903735150827,-158.5499213523521
21.549303410505306,0.16881229626558286,-14.53126651951237,-159.10049934980469
21.56419577422885,0.16639161847906661,-14.582853960164336,-159.24850719169388
21.579098429816284,0.16723736444744217,-14.861361891210215,-158.4118738722417
21.594011384380153,0.1656978175365677,-14.854058746104348,-158.61929707775482
21.608934645037863,0.16625889032969046,-14.586794309507301,-159.75079465430164
21.623868218911781,0.16725427710000643,-14.786000377989597,-157.25354351783093
21.638812113129259,0.16602083680346211,-14.809239816778295,-158.31326017904274
21.65376633482245,0.16656598932312261,-14.72678160290738,-159.08937439446134
21.668730891128529,0.16788526775256091,-14.793588496836552,-159.36395877038672
21.683705789189574,0.16761905317476203,-14.628224442545916,-159.1366359198831
21.698691036152589,0.168278150898204,-14.596371144348968,-159.36549329911051
21.713686639169534,0.16643911028319497,-14.977439983352115,-158.01981766103779
21.728692605397303,0.16683912070264997,-14.607975543519057,-159.56377568125578
21.743708941997742,0.16826192233944104,-14.603507283765795,-158.99436347490968
21.758735656137638,0.16824894290637768,-14.779751214736685,-158.84889480185763
21.773772754988741,0.16959396862012655,-14.705970758053182,-159.87380669242762
21.788820245727766,0.16805474324777303,-14.711549612822921,-159.08892595062582
21.803878135536308,0.16608159783374588,-14.755279835986208,-159.03619598065868
21.818946431601059,0.16901167242172349,-14.708723965492885,-158.87529182325687
21.834025141113617,0.16508843534756343,-14.615361133612462,-159.53038311725581
21.84911427127048,0.16529538640604369,-14.513538246748144,-159.36987328458903
21.864213829273197,0.16751496440482355,-14.607106008086907,-158.69029508649109
21.879323822328335,0.16793794148652827,-14.587457832977872,-159.81332089267374
21.894444257647326,0.168061488820962,-14.705361428323043,-158.54382358489397
21.909575142446656,0.16702369219687219,-14.642679190823813,-159.0866653096214
21.924716483947794,0.16593310092739078,-14.646634606934333,-158.96136456906197
21.939868289377191,0.16704903576947533,-14.927993024684618,-158.77235722349664
21.95503056596629,0.16662625758253002,-14.773110668036104,-157.63657410743212
21.970203320951541,0.16764559789901806,-14.808627907943997,-158.36231995931891
21.985386561574376,0.16659907567726567,-14.788219994385944,-158.78455991445526
22.00058029508126,0.16545545099958647,-14.66588178121471,-159.76751546909142
22.015784528723639,0.16934600041428821,-14.674372653234599,-159.24935914054063
22.030999269758009,0.1691325770513693,-14.88986360254928,-158.56712187788111
22.04622452544578,0.16737011292184778,-14.780229780489476,-158.86810583546588
22.061460303053529,0.16699309847352181,-14.529229521250713,-159.68686211095388
22.076706609852774,0.16671463030023237,-14.73920032367602,-159.36560888460522
22.091963453120016,0.16688814260766929,-14.749899400053909,-158.30463959742647
22.10723084013684,0.16873022279331812,-14.754101606329202,-158.61085054648211
22.122508778189914,0.16612224523971614,-14.764054989463972,-158.76373226407151
22.137797274570818,0.16801244570452162,-14.648508495658328,-159.45632333314978
22.153096336576262,0.1644170294674458,-14.495759371421368,-160.27357158809303
22.168405971507973,0.16827629510041814,-14.531634669340834,-159.5068620289359
22.183726186672722,0.16881347347947229,-14.709629564525946,-158.94609750611767
22.199056989382328,0.16717409182986229,-14.558010371876282,-159.48323903000278
22.214398386953672,0.16905673188982628,-14.823947140301559,-158.82789720292479
22.22975038670868,0.16711470826425895,-14.742561912571217,-159.19571128848366
22.245112995974349,0.16658019199226576,-14.691471348419249,-158.9508224848953
22.260486222082733,0.16808668900892942,-14.718339060261687,-159.78420829868963
22.27587007237095,0.1687295993568026,-14.762074843550362,-159.81826100445869
22.291264554181204,0.16704959318613363,-14.646864899844839,-158.61370368612393
22.306669674860757,0.16810496540988987,-14.796523880704362,-159.17237197887835
22.322085441761971,0.1675570402605609,-14.728485579046266,-159.55167560574412
22.337511862242213,0.16667277908688649,-14.744074290891565,-158.88082748777265
22.352948943664057,0.16751969820236973,-14.537221946064296,-160.55271688481395
22.368396693395102,0.16976785560001426,-14.665847488695967,-159.41483891088166
22.38385511880799,0.16671191411390418,-14.64244271906297,-159.46482134600916
22.399324227280509,0.16642952212836681,-14.631109114507941,-159.42680499620911
22.414804026195615,0.16580781507707396,-14.690416095529164,-159.34561051549474
22.430294522941224,0.16560519107044713,-14.655191998657761,-159.47256356089486
22.44579572491045,0.16674438781225742,-14.456988463422009,-159.97053485213212
22.461307639501491,0.17032838624102914,-14.590188434701943,-160.4967057940494
22.476830274117663,0.16590341458105837,-14.628430162192352,-159.69549497302015
22.492363636167404,0.16896927766924463,-14.664306411115577,-158.91523962378059
22.507907733064254,0.16854667615798843,-14.606626354345071,-159.78924864079215
22.523462572226887,0.16750387520403059,-14.804650821435603,-158.85229316786578
22.539028161079109,0.16714415113260706,-14.521858157019334,-160.54592397899501
22.554604507049849,0.16977148397651451,-14.728667705541005,-159.28785002613807
22.570191617573194,0.16730166874522998,-14.664852647641904,-158.88471586247826
22.585789500088278,0.16525860234991696,-14.561782629464401,-159.10913096411309
22.601398162039516,0.16656485138741456,-14.669186372364782,-160.00532260561349
22.617017610876392,0.1659509445104656,-14.777611309965925,-159.10719867913141
22.632647854053499,0.16674437336398268,-14.709400437704414,-159.8601356321719
22.648288899030621,0.16757719415634637,-14.67632957223222,-159.77632974648205
22.663940753272779,0.16523029443635245,-14.494519813768045,-160.05442032526048
22.679603424250001,0.16662255253005312,-14.525617414013144,-160.29213599035427
22.695276919437578,0.16836150309050046,-14.706378759735973,-158.66467083055613
22.710961246315936,0.16752585369332945,-14.691006998580152,-158.7385045100595
22.72665641237068,0.16521457137197526,-14.617171001510819,-159.50844487047243
22.74236242509258,0.16648809317062682,-14.571350774781774,-160.09340585973092
22.758079291977594,0.16750362282054426,-14.700077092772229,-159.14380503858621
22.773807020526846,0.16535305669694988,-14.665996042071169,-159.62615205949075
22.789545618246649,0.17008928125453776,-14.564695512411232,-159.53653406240494
22.80529509264851,0.16831257378120468,-14.70188845662152,-160.03279230762061
22.821055451249148,0.16926027994134335,-14.671122697063424,-159.66304091714767
22.836826701570374,0.16714557887041573,-14.459181735350548,-160.31240807258087
22.852608851139347,0.16768310810187403,-14.60973825512265,-160.76771334117751
22.868401907488362,0.16775631194452553,-14.520071788336699,-160.08530310475194
22.884205878154852,0.16591668562018061,-14.519086546559205,-159.85572051009871
22.900020770681532,0.17042347619069576,-14.555194993200075,-159.78117440919777
22.915846592616379,0.16573960851232539,-14.767987598319671,-158.79020901990813
22.931683351512461,0.16771426672716691,-14.525764096322909,-159.51402427616438
22.947531054928152,0.16597343385386726,-14.50684718937099,-160.78681821059845
22.963389710427016,0.16416629925233145,-14.483330976592701,-160.27674884627143
22.979259325577868,0.16715128496740725,-14.661826464847161,-160.18638940425589
22.995139907954734,0.16681942572442529,-14.376338784201952,-160.6210623831052
23.011031465136885,0.1670858948905613,-14.654591633300161,-159.47386473205472
23.026934004708824,0.16597241775709454,-14.469071669366731,-160.15755872019054
23.042847534260293,0.16614320189522663,-14.648110474489302,-159.42141411591834
23.058772061386289,0.16749970061262637,-14.519785727227703,-159.43919773747919
23.074707593687066,0.16703016185348027,-14.5076430824715,-160.14493574546765
23.090654138768059,0.16960717928750768,-14.441688155545133,-160.53772510624447
23.10661170424008,0.16844867507732392,-14.606836888213179,-159.5436514015239
23.122580297719139,0.16872230848040976,-14.728165761597214,-159.98942594837337
23.138559926826456,0.16921026867534897,-14.502831773970314,-160.748322439829
23.154550599188578,0.16643247346544843,-14.563838457121081,-159.90597203213264
23.170552322437377,0.16609535586333701,-14.476327626016168,-160.69826579889695
23.186565104209873,0.16695577410347398,-14.648487478939444,-159.74837112382258
23.202588952148439,0.16837390696567789,-14.556782392654423,-160.24712614431652
23.218623873900729,0.17043827036546846,-14.550324750273484,-160.86494871169191
23.234669877119661,0.16950252890133111,-14.468799398282005,-160.91949879154049
23.250726969463461,0.16866720448246031,-14.597292855871583,-160.3513679140332
23.266795158595635,0.1679964484899194,-14.616685281045385,-159.44888944452373
23.282874452184984,0.16835414707168292,-14.572435970462454,-160.02864849050394
23.298964857905617,0.16827799890293832,-14.679509187485841,-159.738557584886
23.315066383436939,0.16668195675442476,-14.514077844766994,-160.28746297938326
23.331179036463674,0.16696881547605785,-14.618614028866123,-159.54834957947352
23.347302824675836,0.16839279736174637,-14.66605199974401,-159.52909771703128
23.363437755768771,0.16419050781061967,-14.463549832716469,-159.92397851085684
23.379583837443164,0.17061876582525132,-14.621435558777806,-160.04640261020177
23.395741077404949,0.1692492748703574,-14.622139778592473,-160.52654946615931
23.411909483365424,0.16655475391886554,-14.738639924260852,-160.24281194505346
23.428089063041309,0.16799728474083447,-14.584108805374516,-160.06973974797998
23.444279824154485,0.16807176688424016,-14.636510933159876,-160.35648950318961
23.460481774432267,0.16886589923078721,-14.586650466671021,-159.92885715804488
23.476694921607368,0.16581618905592588,-14.689863067511979,-159.69731426780191
23.492919273417705,0.16629696271670433,-14.43609416955384,-160.9394656428322
23.509154837606641,0.17005479777707289,-14.520819688599911,-159.91426239689079
23.525401621922857,0.16948397220473954,-14.490464201638503,-160.58677312669067
23.541659634120407,0.16851842174839207,-14.567640310467517,-160.27073204841292
23.557928881958681,0.16999587036760422,-14.454836760445293,-160.41353714328551
23.57420937320245,0.1671040952218644,-14.531748977135146,-160.15439784861024
23.590501115621837,0.16878356526010752,-14.622277399565997,-159.91960659180972
23.60680411699235,0.16913174091786967,-14.633526667218064,-160.12344791584943
23.623118385094855,0.16960410952136268,-14.441159596291616,-160.54680946579228
23.639443927715629,0.16920384000562699,-14.566994527965429,-160.40573609186117
23.655780752646226,0.16865286256577658,-14.468604073208793,-160.47459912089278
23.67212886768375,0.16668824645973745,-14.42671527496719,-160.92299548272658
23.688488280630583,0.16561195883606103,-14.671050905991125,-160.01487652376875
23.704858999294494,0.16543621093106747,-14.266044984314446,-161.34333614800576
23.721241031488663,0.16723068617308254,-14.645187949581358,-160.46825997164575
23.737634385031757,0.16747357180084294,-14.524926428072217,-160.62461294323575
23.754039067747698,0.16724207042665346,-14.581830682469635,-160.19361382633551
23.770455087465916,0.16643307070967703,-14.562463738263103,-159.96897772504877
