#Digilent WaveForms Network Analyzer - Bode
#Device Name: Discovery2
#Serial Number: SN:210321A18F9B
#Date Time: 2017-05-22 14:18::47.383

Frequency (Hz),Channel 1 Magnitude (dB),Channel 2 Magnitude (dB),Channel 2 Phase (°)
20.000000000000021,0.16563565997004825,-14.762342867348885,-164.62671942606616
20.013821666009239,0.1677021111880948,-14.77056733911229,-164.63863741897853
20.02765288394102,0.16774121537800335,-14.790691351841732,-164.78632364159563
20.04149366039654,0.16966672195651006,-14.782511180666024,-164.78024234417222
20.055344001981531,0.16734699514806189,-14.762506647675885,-164.76062709910835
20.0692039153063,0.16951209855486912,-14.782866718273686,-164.77564378355436
20.083073406985712,0.16849223409395139,-14.77137704723345,-164.82165198780052
20.09695248363921,0.16596275188935145,-14.76714689790224,-164.84519196446553
20.11084115189081,0.1675877072085234,-14.760926094884654,-164.87934545389416
20.124739418369124,0.16906998228740749,-14.766160201597074,-164.90976024574664
20.138647289707265,0.16756706307986968,-14.770770316110308,-164.97957082564295
20.152564772543055,0.16745973088557004,-14.770948894424297,-164.87616031466104
20.166491873518837,0.17094334097551359,-14.785620752549773,-164.91589656811399
20.180428599281505,0.16859051412731613,-14.760123615862161,-164.9399287053028
20.194374956482591,0.17028195229075166,-14.770033450317719,-164.95711510182701
20.208330951778283,0.16723026038196337,-14.759144526404668,-164.87140656911467
20.222296591829245,0.16762207034289539,-14.751908482125062,-164.98247470703438
20.236271883300827,0.1674963770932395,-14.764920291538173,-165.05182313807029
20.250256832862963,0.17099675658734878,-14.763155593050588,-165.09196765213792
20.264251447190198,0.16805834177016432,-14.747466943718399,-165.09939788591748
20.278255732961693,0.16769534389845356,-14.746326881796449,-165.08867842258184
20.292269696861215,0.16874873289106695,-14.750567657728656,-165.0463222079174
20.306293345577167,0.16978047770546062,-14.758495618689743,-165.05074390787385
20.320326685802556,0.16636261726625759,-14.750776082265737,-165.01629707563114
20.334369724235025,0.16964660094089462,-14.763462123889905,-165.07894400055596
20.34842246757686,0.16747335903442906,-14.741731551691995,-165.1814345073405
20.362484922534907,0.16915764948139062,-14.760677146074091,-165.17055099535267
20.376557095820758,0.16964315759282655,-14.759482938110116,-165.1357947567551
20.390638994150589,0.1673471342789643,-14.75869491644316,-165.24642419692859
20.404730624245172,0.16695778499635877,-14.760841125590217,-165.22914375275141
20.418831992829968,0.16651354995390882,-14.736387386857775,-165.30901337968092
20.43294310663515,0.17366932545482844,-14.758306229905433,-165.17873064319869
20.447063972395416,0.16664091503234543,-14.725925754473595,-165.24274376942935
20.461194596850191,0.1673651697641558,-14.738166000431578,-165.31084309278089
20.475334986743555,0.16821947322051986,-14.738904931141921,-165.37294781714962
20.489485148824237,0.17009948899357624,-14.741191285132579,-165.27085349548125
20.50364508984563,0.16646116567713026,-14.732922966856171,-165.33410424230365
20.517814816565799,0.16929062362136438,-14.740811687098695,-165.38834024243019
20.531994335747481,0.16923318524094322,-14.732805794922722,-165.32054461367812
20.546183654158071,0.1720964535280656,-14.72729760332693,-165.37114491226262
20.560382778569661,0.16873607457273726,-14.735573707954906,-165.4470961262771
20.574591715759038,0.16590559258878396,-14.737989145404038,-165.32944864804659
20.588810472507578,0.16802775917776497,-14.74698021530225,-165.4166769453399
20.603039055601485,0.16931125526090188,-14.731895643805048,-165.46081869339935
20.617277471831574,0.16956517281076819,-14.737240309316826,-165.5421035095894
20.631525727993328,0.16998267052875321,-14.730379683754059,-165.4839191594738
20.645783830886948,0.16792140131609806,-14.739353475230546,-165.41148953682568
20.660051787317421,0.17307939983807069,-14.76133898891465,-165.43548750843206
20.674329604094297,0.16897570227120046,-14.74611228452064,-165.45220176288325
20.68861728803191,0.17248707749728517,-14.751068056206027,-165.52496761249182
20.702914845949294,0.17105358747277363,-14.747649915351989,-165.42334947166702
20.717222284670193,0.16568060488223391,-14.737761866067185,-165.50952033390382
20.731539611023067,0.16437513685247904,-14.736331457647132,-165.48990577827615
20.745866831841088,0.16821660678630115,-14.731079751538507,-165.49087907645008
20.760203953962158,0.16895454737737986,-14.743735630223826,-165.64519566501016
20.774550984228906,0.1744965274358698,-14.741914232379017,-165.49651200204366
20.78890792948868,0.16655484617473151,-14.74602357106237,-165.53697932851864
20.803274796593591,0.17031784549123824,-14.739501119287484,-165.57360567087392
20.817651592400392,0.1695338474191985,-14.727157301037593,-165.6414451291804
20.832038323770714,0.16852787834919988,-14.723331692793849,-165.81561091625801
20.846434997570853,0.16941166165642538,-14.72878333862802,-165.65414998535749
20.86084162067182,0.17084620513066784,-14.736637630009145,-165.76918660192672
20.875258199949403,0.16843370696891596,-14.733316902511531,-165.7109983610662
20.889684742284217,0.17234686117237563,-14.732826404393824,-165.74616413059687
20.904121254561506,0.16652203099304702,-14.717896099743864,-165.7553988095261
20.918567743671343,0.16874175230725011,-14.726411591575506,-165.91458182529468
20.933024216508553,0.16710008517479877,-14.724914259560805,-165.71948438263757
20.947490679972727,0.17047293591300161,-14.733763466750062,-165.73166266210166
20.961967140968213,0.16859063408198172,-14.712046080069074,-165.79450252075165
20.976453606404149,0.1689214503909178,-14.723355159173426,-165.92493292783479
20.990950083194427,0.16881773753471666,-14.717590763190515,-165.90535235961937
21.005456578257732,0.16953001018967032,-14.710009658448849,-165.8421734836557
21.019973098517521,0.17152790814173952,-14.72583916402623,-165.84945125619353
21.034499650902067,0.17177606300033957,-14.729004719306143,-165.96619401033328
21.049036242344336,0.16724179378980614,-14.712066007617981,-165.91872040215478
21.063582879782217,0.16539522108665561,-14.71615055619764,-165.90862998217898
21.078139570158328,0.17035728081345686,-14.722866980548195,-165.95863406149394
21.092706320420028,0.16966928173611667,-14.711399581008118,-165.98056789315459
21.107283137519595,0.16888432259300576,-14.708067161011444,-165.97800127460792
21.121870028414058,0.17099247588052918,-14.713615716949011,-165.94531292883494
21.136467000065199,0.17054842186061556,-14.725418217380934,-166.02813416292892
21.151074059439665,0.1668713272330179,-14.718453110259127,-166.04953734683926
21.165691213508975,0.17230908221989566,-14.738329008807705,-166.05733834355516
21.180318469249347,0.17106434516664951,-14.731750318469832,-166.03993436504817
21.194955833641888,0.16693918513353195,-14.7342680891458,-166.05791469242342
21.209603313672524,0.16936450839087064,-14.694433602026526,-166.0819828751813
21.224260916332003,0.16825787642661627,-14.708039670399856,-166.01413001364512
21.238928648615904,0.16802789030108858,-14.715415520340969,-166.04969512017755
21.253606517524641,0.1690073591470995,-14.705788628515879,-166.13642998887261
21.268294530063471,0.16934842998049593,-14.723937245965876,-166.18302027749667
21.282992693242484,0.1679631408750849,-14.707784935637392,-166.21974243985363
21.297701014076612,0.17077513053851101,-14.716747903847311,-166.02783469992266
21.312419499585673,0.17097981334520418,-14.706635972232807,-166.19043817919317
21.327148156794234,0.16868724434804266,-14.703551377460798,-166.2047583041315
21.341886992731848,0.17130394467041088,-14.715256639046366,-166.24850675753009
21.356636014432869,0.16856013731837646,-14.699969946145812,-166.32932033476555
21.371395228936468,0.16966960522784275,-14.695351139516861,-166.34814742393542
21.386164643286712,0.16955321489980799,-14.698214578190981,-166.30736135304667
21.400944264532619,0.16850246252322409,-14.704144538557681,-166.25590682564459
21.415734099727931,0.16860230619606731,-14.715158948420001,-166.2653503503285
21.430534155931365,0.17157065393494961,-14.708836903247777,-166.31352585257352
21.445344440206483,0.17112126550302076,-14.717788795604552,-166.33538251629113
21.460164959621743,0.17012380355007012,-14.691481329254179,-166.41426908937808
21.474995721250476,0.17028832112419034,-14.692750130145898,-166.3671706260572
21.4898367321709,0.16833536683728698,-14.688205334874333,-166.36136704271718
21.504687999466132,0.16909086248711852,-14.719111308088193,-166.40068869440276
21.519549530224186,0.17045917508565825,-14.698063348041607,-166.5104663424398
21.534421331537967,0.16858297691321036,-14.693676084418982,-166.47903936604553
21.549303410505306,0.17031338396317749,-14.693494492977269,-166.49475059912362
21.56419577422885,0.16896305816582186,-14.698757369022315,-166.37277741528104
21.579098429816284,0.16843227879688355,-14.696303533347997,-166.50304981743164
21.594011384380153,0.16807089489047136,-14.67655979897302,-166.43552543652149
21.608934645037863,0.16812358343853442,-14.696254839471926,-166.51214702628411
21.623868218911781,0.16912789081400176,-14.682914909028392,-166.65528275552566
21.638812113129259,0.16820703025234793,-14.684333222162582,-166.43895048310455
21.65376633482245,0.16539453942981117,-14.678186015857973,-166.48481366618284
21.668730891128529,0.17115801007860451,-14.695402900733798,-166.64534978590584
21.683705789189574,0.16721769566027392,-14.676307512911199,-166.55022352391816
21.698691036152589,0.17158401718379648,-14.689523932971298,-166.71299283744935
21.713686639169534,0.17017236653160875,-14.694366748147299,-166.58925398766587
21.728692605397303,0.16996636422143513,-14.681133668353413,-166.60964467407823
21.743708941997742,0.16752707245554291,-14.681389150811302,-166.6739097976689
21.758735656137638,0.17118365877124736,-14.69519002507865,-166.63157625341745
21.773772754988741,0.16832205333918876,-14.679867986077797,-166.69243694961872
21.788820245727766,0.16637230440530471,-14.689474380451646,-166.6584459561218
21.803878135536308,0.16793386653398604,-14.668104747232087,-166.73188139497154
21.818946431601059,0.16690594894023353,-14.69490392181714,-166.79487219770527
21.834025141113617,0.16636469670883813,-14.695255174722925,-166.76576138161943
21.84911427127048,0.17065809486137662,-14.686366306078867,-166.7017011126195
21.864213829273197,0.1698752497273826,-14.685339817751826,-166.7705791645617
21.879323822328335,0.16999280355550264,-14.698850349752826,-166.75367623602062
21.894444257647326,0.16898389144227777,-14.67588765293025,-166.85211399474713
21.909575142446656,0.16948018236269205,-14.660991080002148,-166.81884484723622
21.924716483947794,0.16987528062801893,-14.680460058043543,-166.81887394768239
21.939868289377191,0.16624947260801767,-14.679460628421076,-166.88694785535648
21.95503056596629,0.17000467363360719,-14.683633610980147,-166.81462670984519
21.970203320951541,0.17186514264077352,-14.673187568942659,-166.8902614952334
21.985386561574376,0.17063152887508976,-14.669272463944798,-166.95697609368284
22.00058029508126,0.16874856463836146,-14.699274302292768,-167.01703823583077
22.015784528723639,0.16599728956434157,-14.665575010410816,-166.99939899037869
22.030999269758009,0.16975394481061609,-14.672148148074257,-166.93609093343684
22.04622452544578,0.17034772965888895,-14.674571873981739,-167.00181104842414
22.061460303053529,0.16717756778816822,-14.677038311089072,-167.02114991944836
22.076706609852774,0.16881525836570926,-14.674920028561697,-166.91065144743754
22.091963453120016,0.17063577093093135,-14.676196917476352,-167.02151860321473
22.10723084013684,0.16716062049059735,-14.657682230479665,-167.0209255059585
22.122508778189914,0.17048327107913558,-14.672662756404939,-166.95097163520137
22.137797274570818,0.17117039008139431,-14.675133364940113,-167.16502384913667
22.153096336576262,0.1739516111048246,-14.672564736597831,-167.05720767360776
22.168405971507973,0.16724584412524945,-14.66695777644993,-167.12746246183781
22.183726186672722,0.16957939434280539,-14.674152871600693,-167.12424743966744
22.199056989382328,0.17297818115941374,-14.685533636356913,-167.09491648441551
22.214398386953672,0.16676181425633918,-14.665909923675041,-167.17794839961599
22.22975038670868,0.16762729178914865,-14.6730692800255,-167.11050568321633
22.245112995974349,0.16993665334685357,-14.648570159534476,-167.08091692113541
22.260486222082733,0.16633572927363971,-14.659946859637325,-167.15768322042081
22.27587007237095,0.17095816378466244,-14.667954076173864,-167.17511509605131
22.291264554181204,0.17011686420393146,-14.658125897536141,-167.2240033452608
22.306669674860757,0.1685259979827827,-14.672450070295135,-167.24043211219882
22.322085441761971,0.17003333859923669,-14.667195372721729,-167.19482952957341
22.337511862242213,0.17162641883023222,-14.660114744468638,-167.24346528283317
22.352948943664057,0.17158236493651197,-14.655872752800489,-167.22916804339178
22.368396693395102,0.1711627227237901,-14.659851277495889,-167.20071701493711
22.38385511880799,0.16902744253733767,-14.661816788151514,-167.28944730346464
22.399324227280509,0.17042569799902563,-14.652563851501011,-167.38724491837596
22.414804026195615,0.16916905665908094,-14.659423252199025,-167.40593311934938
22.430294522941224,0.17001091605977209,-14.66549355971175,-167.37444145831702
22.44579572491045,0.1676674275073648,-14.654489686041124,-167.30707386905868
22.461307639501491,0.17107493495403198,-14.63848730787992,-167.32992836700333
22.476830274117663,0.16787963233746228,-14.650847901081438,-167.3211970793173
22.492363636167404,0.16948644265895779,-14.662008010563687,-167.49858525085619
22.507907733064254,0.17112467429789582,-14.657757605184173,-167.49586815231606
22.523462572226887,0.1699431501757338,-14.654713719222624,-167.39309715906506
22.539028161079109,0.16906293589103952,-14.659124809442741,-167.47867461954883
22.554604507049849,0.17045819709776322,-14.650570507669231,-167.45335076406812
22.570191617573194,0.1694339963291572,-14.635401341597913,-167.58029502519912
22.585789500088278,0.16912603099848864,-14.646905814000135,-167.47360979030492
22.601398162039516,0.17130969646440647,-14.656240810318176,-167.58342632360353
22.617017610876392,0.16659805480999934,-14.634216212534719,-167.53041323142611
22.632647854053499,0.17088557071661611,-14.642088364897317,-167.5723034805867
22.648288899030621,0.17075740494730804,-14.644624120031274,-167.46115152176955
22.663940753272779,0.16693738190040938,-14.663287035540996,-167.59265231527851
22.679603424250001,0.16702779584212729,-14.649597753592458,-167.6342120469094
22.695276919437578,0.16882987779365566,-14.642272738046691,-167.61991216788667
22.710961246315936,0.17166644550461532,-14.656169908879191,-167.60844790402382
22.72665641237068,0.17028189840836952,-14.665075050490362,-167.61942034261068
22.74236242509258,0.17005537268087401,-14.663332766105604,-167.66769005859027
22.758079291977594,0.16717847394306454,-14.636226076769457,-167.69214108258728
22.773807020526846,0.16624250147514702,-14.644570065181723,-167.67490396724804
22.789545618246649,0.17081871205351165,-14.65278956696682,-167.70018185443126
22.80529509264851,0.17005116033431231,-14.652585731326734,-167.69829136770741
22.821055451249148,0.16991035491724757,-14.636140046646332,-167.6944549270701
22.836826701570374,0.17101924135476942,-14.654231286002755,-167.80806937265487
22.852608851139347,0.17368604725905379,-14.659373503308988,-167.79142370446422
22.868401907488362,0.1672671740429241,-14.637985872755683,-167.86348660868782
22.884205878154852,0.16985874803254014,-14.64113409029277,-167.68503751805318
22.900020770681532,0.16646261613794369,-14.63390067506587,-167.76047517045509
22.915846592616379,0.17062996308974246,-14.654450384585493,-167.83237414318154
22.931683351512461,0.1707904728610424,-14.641252579052351,-167.87482193937785
22.947531054928152,0.16808826684557104,-14.641201912444666,-167.84098301725322
22.963389710427016,0.17037521320034249,-14.641392875326586,-167.95002749888778
22.979259325577868,0.16901248119711543,-14.630760850688077,-167.87468383099269
22.995139907954734,0.17040608147336347,-14.654292781710428,-167.94477852562036
23.011031465136885,0.1673656542402544,-14.637886413648788,-167.89414391674259
23.026934004708824,0.16925757557249266,-14.630780219858515,-167.90745021529165
23.042847534260293,0.16889330943899386,-14.644592960141242,-167.92951701772895
23.058772061386289,0.16973549074521188,-14.635043220821712,-167.97039062409473
23.074707593687066,0.16930814081930892,-14.62375161769617,-167.93181649894157
23.090654138768059,0.17059137682932909,-14.63202039094443,-167.97598911001595
23.10661170424008,0.16774996294510397,-14.628113866773971,-168.08825269873108
23.122580297719139,0.169483351736371,-14.621131704792091,-167.9539858075521
23.138559926826456,0.17180456770723557,-14.640940287010327,-168.0989568286179
23.154550599188578,0.16920039144125615,-14.631668090487228,-168.10374401230618
23.170552322437377,0.1708202899134576,-14.637401887512381,-168.06707379508649
23.186565104209873,0.16914992235522469,-14.637386633888676,-168.12719744954131
23.202588952148439,0.16818960328877111,-14.644318624336119,-168.09712347886926
23.218623873900729,0.16958205808847976,-14.643718298152717,-168.05922305602252
23.234669877119661,0.16983301260002343,-14.637112103001142,-168.15219268430994
23.250726969463461,0.16872232899524131,-14.631358159621129,-168.22204636879025
23.266795158595635,0.1686342727952726,-14.628834348049738,-168.13455454915214
23.282874452184984,0.17074456008117411,-14.615423265619334,-168.18326120798969
23.298964857905617,0.17168774694308803,-14.645448390156899,-168.23602984191518
23.315066383436939,0.17199491147335297,-14.628683248943942,-168.20167988476501
23.331179036463674,0.17031585169451049,-14.61935238349292,-168.16583821738715
23.347302824675836,0.16996680020384014,-14.625415917796376,-168.26644961285871
23.363437755768771,0.16934670882577343,-14.624518624796499,-168.21193116824671
23.379583837443164,0.17129062099405629,-14.626892829344616,-168.31186158367362
23.395741077404949,0.16740019980554799,-14.618358550923414,-168.32915853257776
23.411909483365424,0.16975159668692225,-14.627614273255007,-168.41756189342263
23.428089063041309,0.16781560529123898,-14.627628548436489,-168.37994625640476
23.444279824154485,0.17072305660221013,-14.622344255855698,-168.33907870981594
23.460481774432267,0.16933160504068126,-14.63195966122376,-168.30303098139586
23.476694921607368,0.17057265202872016,-14.622020053851861,-168.32000994079473
23.492919273417705,0.1733030778959278,-14.628215484277041,-168.32830151257338
23.509154837606641,0.17412332250415122,-14.631076126334225,-168.39944138901322
23.525401621922857,0.16872260347712917,-14.607729405348335,-168.34112250713758
23.541659634120407,0.16916012440651929,-14.613626278899384,-168.43831960532307
23.557928881958681,0.1721818076287685,-14.618829416685539,-168.51385998719519
23.57420937320245,0.17010053691321678,-14.618221585297791,-168.3395471877426
23.590501115621837,0.16973087565348011,-14.607932602862096,-168.49123839581571
23.60680411699235,0.16461338699073286,-14.598642291640555,-168.46844939021429
23.623118385094855,0.16821981956370169,-14.616001228445883,-168.4487199823736
23.639443927715629,0.16827277800184987,-14.613187253006515,-168.49794942057437
23.655780752646226,0.17108289175683705,-14.598811867580689,-168.558010748394
23.67212886768375,0.17029011321881404,-14.624058430167857,-168.45019995370475
23.688488280630583,0.17080162603699106,-14.62614799444184,-168.51314545093663
23.704858999294494,0.1708104749315405,-14.617850046862275,-168.53191706343731
23.721241031488663,0.16961047781285346,-14.604577610500424,-168.54761054842754
23.737634385031757,0.17069704744598349,-14.605870679033188,-168.54873018645961
23.754039067747698,0.16760076227631374,-14.597158213992898,-168.66986533883392
23.770455087465916,0.16930929806866693,-14.609951145601505,-168.6112228812467
