#Digilent WaveForms Network Analyzer - Bode
#Device Name: Discovery2
#Serial Number: SN:210321A18F9B
#Date Time: 2017-05-22 16:45::27.367

Frequency (Hz),Channel 1 Magnitude (dB),Channel 2 Magnitude (dB),Channel 2 Phase (°)
20.000000000000021,0.1577199058382372,-14.769578314588728,-166.77999584515638
20.013821666009239,0.15732649771388019,-14.771725939531095,-166.75358668147675
20.02765288394102,0.15659275164441155,-14.758212807098269,-166.81925454723236
20.04149366039654,0.15634486364483646,-14.760452392844886,-166.8303649227305
20.055344001981531,0.15829647054668267,-14.750371722747262,-166.88330117862228
20.0692039153063,0.15598517298371392,-14.764276196083546,-166.90021784767447
20.083073406985712,0.15750995798735573,-14.753307630954961,-166.86098867606356
20.09695248363921,0.15443411927977344,-14.76045531614465,-166.97392349718265
20.11084115189081,0.15437680557049865,-14.766896574890794,-167.01733839918313
20.124739418369124,0.15908175063844782,-14.758483696451547,-166.97445181749276
20.138647289707265,0.15477855374761174,-14.75609803443287,-166.8998318525957
20.152564772543055,0.15376478795374787,-14.761784778159246,-167.02815187884943
20.166491873518837,0.15385874712772984,-14.75876901520089,-167.0552430579433
20.180428599281505,0.15466637598449004,-14.762334022281943,-166.95135648355554
20.194374956482591,0.15708197726782885,-14.76910347523788,-167.13806513057236
20.208330951778283,0.1554439654984679,-14.765573664457204,-167.10982909522414
20.222296591829245,0.15627536813354245,-14.761885742019922,-167.09664453070098
20.236271883300827,0.15746227908774998,-14.765285061169655,-167.06713478552899
20.250256832862963,0.15937417551845498,-14.763819200281965,-167.11022809948361
20.264251447190198,0.15541180065256507,-14.756206147127248,-167.0551113577732
20.278255732961693,0.15813037733461682,-14.749056723601859,-167.1373594914013
20.292269696861215,0.15406066359308959,-14.745737816313991,-167.11116857025704
20.306293345577167,0.15471609039868542,-14.7492222614916,-167.09533737291204
20.320326685802556,0.15796521205408226,-14.750609310798898,-167.109858653206
20.334369724235025,0.15470479268894025,-14.748121741915696,-167.29622383486594
20.34842246757686,0.15641085058723159,-14.758988858128175,-167.23340526658259
20.362484922534907,0.15585139710176163,-14.748533612645272,-167.21911436672076
20.376557095820758,0.15648026439542179,-14.75044161201815,-167.35596046008976
20.390638994150589,0.155319720803031,-14.748011611919514,-167.17892592708546
20.404730624245172,0.15917432712943397,-14.748656386332202,-167.34356193069507
20.418831992829968,0.1551399653630221,-14.743301553322915,-167.45473345977589
20.43294310663515,0.15649052621223564,-14.744014738171778,-167.30538407462421
20.447063972395416,0.15449723399243265,-14.738176105919511,-167.34586830370924
20.461194596850191,0.15671142115270684,-14.748635684759146,-167.3662602390163
20.475334986743555,0.15719794411473587,-14.736476534112962,-167.34072972741595
20.489485148824237,0.15683904584315914,-14.737317720048553,-167.46356438379334
20.50364508984563,0.15827322797288496,-14.747179635301947,-167.27693660970999
20.517814816565799,0.15800870924943436,-14.743587841875064,-167.39557569035688
20.531994335747481,0.15735144036275156,-14.743167590337048,-167.55794748611657
20.546183654158071,0.15485984756788135,-14.745808651172814,-167.50840102419724
20.560382778569661,0.15747943649310847,-14.730344737339408,-167.58494485554755
20.574591715759038,0.15966589315890867,-14.727528795074898,-167.53219550277652
20.588810472507578,0.15656968156312775,-14.742834613012999,-167.662023248651
20.603039055601485,0.15575367121367797,-14.73509343184798,-167.67208927810066
20.617277471831574,0.15518373185051942,-14.721167858535063,-167.59348350258929
20.631525727993328,0.15916229013677977,-14.741943238827499,-167.62342171700502
20.645783830886948,0.15680063469233674,-14.72610634059998,-167.59151094104215
20.660051787317421,0.1580236997474197,-14.73624353897983,-167.73675167855035
20.674329604094297,0.1573017128646515,-14.733297430134741,-167.58264773057647
20.68861728803191,0.15801042949084268,-14.720352404576023,-167.68224696308843
20.702914845949294,0.1564856363486414,-14.72609735566563,-167.65898710132421
20.717222284670193,0.15824184417340409,-14.739502363934378,-167.78813012734054
20.731539611023067,0.15385880275111963,-14.712862724848893,-167.66748540227178
20.745866831841088,0.15751838021999864,-14.728832437078305,-167.68640555024274
20.760203953962158,0.15784187203005667,-14.717340601551903,-167.65488900165005
20.774550984228906,0.15679825747664045,-14.717533064824098,-167.73373694105354
20.78890792948868,0.15722359444747641,-14.733009290958138,-167.93250001421745
20.803274796593591,0.15646625714294332,-14.729003872571067,-167.74433502292527
20.817651592400392,0.15764603840288494,-14.715700558460014,-167.8389133407764
20.832038323770714,0.1570721629698022,-14.724811810119434,-167.88576990774374
20.846434997570853,0.15866415309164092,-14.725579208066859,-167.81332172809712
20.86084162067182,0.15726966411989646,-14.726668396665596,-167.86391274380756
20.875258199949403,0.15584589283871911,-14.723109503671125,-167.92862363049974
20.889684742284217,0.15810268939582361,-14.720759886994925,-167.89719350794283
20.904121254561506,0.15573241021862,-14.719107849513879,-167.88702179928933
20.918567743671343,0.15414660554334328,-14.716479972695051,-167.881424765497
20.933024216508553,0.15721533901352699,-14.718250792880085,-167.93836751685842
20.947490679972727,0.15442495244499177,-14.724591948996643,-168.03430530802268
20.961967140968213,0.15556364223197205,-14.717548248977197,-167.99214922001877
20.976453606404149,0.15557067028072208,-14.709836379382185,-168.04878012190332
20.990950083194427,0.15715574559514645,-14.703529353118496,-167.99415501899182
21.005456578257732,0.1556184852140782,-14.72724838400795,-168.105931819755
21.019973098517521,0.1570627652006511,-14.697837515755729,-168.12445768682858
21.034499650902067,0.155589230814076,-14.7221144411896,-168.04564785789182
21.049036242344336,0.15705105842935715,-14.711421288159842,-168.10574828356735
21.063582879782217,0.15764562275543503,-14.712645401632141,-168.14928105743616
21.078139570158328,0.15745279844665377,-14.718886103660214,-168.14999653783488
21.092706320420028,0.15407427668910989,-14.716304202487846,-168.1416904810107
21.107283137519595,0.15174203530759106,-14.70920156500253,-168.20829915458327
21.121870028414058,0.15532024066323677,-14.70157861827396,-168.17119410943221
21.136467000065199,0.15607085145968091,-14.713454329965977,-168.20906961800901
21.151074059439665,0.15671627557504597,-14.719500023994554,-168.25960564236021
21.165691213508975,0.15589163199384559,-14.725074323938202,-168.32035600269683
21.180318469249347,0.16164354402300918,-14.74187463043782,-168.24119261768331
21.194955833641888,0.15287037230683168,-14.733116944653531,-168.23653555564903
21.209603313672524,0.15625669083646287,-14.690452467468003,-168.24195444971718
21.224260916332003,0.15460201296628837,-14.693959922214116,-168.33234410179696
21.238928648615904,0.15622868444100799,-14.70429644634766,-168.29251035561748
21.253606517524641,0.15593710648264683,-14.704243071248051,-168.36666238087653
21.268294530063471,0.15423539229878863,-14.721544431794086,-168.42217583432972
21.282992693242484,0.15794142775447217,-14.72341116125696,-168.43680353051971
21.297701014076612,0.15734114616061615,-14.712829574825966,-168.39852240228973
21.312419499585673,0.15865456834835717,-14.707462713226359,-168.3621601948461
21.327148156794234,0.15660323064478793,-14.712186908777333,-168.40144067764101
21.341886992731848,0.15677030354814486,-14.714612162763487,-168.47612862616066
21.356636014432869,0.15808124348916516,-14.696396719987074,-168.53959607866656
21.371395228936468,0.15618624817832191,-14.702909395464882,-168.57842301466849
21.386164643286712,0.15819374122578886,-14.691004093151861,-168.54074206707088
21.400944264532619,0.15440862497937674,-14.705592802828926,-168.61832569242426
21.415734099727931,0.15801349013572694,-14.697382653499131,-168.5781486145963
21.430534155931365,0.15886721185381175,-14.69087082973634,-168.56558764776602
21.445344440206483,0.15974931468494069,-14.697460392919631,-168.56186113333911
21.460164959621743,0.15808846647090938,-14.69195576330452,-168.58691651273367
21.474995721250476,0.15624368344395764,-14.689174593542095,-168.59265896239947
21.4898367321709,0.15770259451819743,-14.699501982220124,-168.62359493784618
21.504687999466132,0.15638884728825309,-14.686792456653402,-168.58383213060316
21.519549530224186,0.15716153637428798,-14.694358927980522,-168.5886540329895
21.534421331537967,0.15687623363568198,-14.705922120039466,-168.69638708233595
21.549303410505306,0.15915879526855536,-14.708139086453082,-168.77062255520181
21.56419577422885,0.15820759075323215,-14.697076443175749,-168.76642761563548
21.579098429816284,0.1573755720579908,-14.681891734424589,-168.8040829049479
21.594011384380153,0.156579887132451,-14.699580062525204,-168.71904879051544
21.608934645037863,0.15515402750159554,-14.701500203572561,-168.87517882313952
21.623868218911781,0.15562621946660279,-14.707900187348134,-168.85144799529382
21.638812113129259,0.1548351864218746,-14.684351716761398,-168.85045276166844
21.65376633482245,0.15941633000504463,-14.69265656173388,-168.90697247538426
21.668730891128529,0.1553812047682181,-14.691117759359182,-168.78954494406656
21.683705789189574,0.15625803841119495,-14.688052665801607,-168.87927720274308
21.698691036152589,0.15430728274736621,-14.673227267507258,-168.87037090758997
21.713686639169534,0.15791406637173006,-14.684768777074204,-168.76073461899571
21.728692605397303,0.15656743111197982,-14.677790788837395,-168.86509769579527
21.743708941997742,0.15548732697333831,-14.668755394982643,-168.95298257213759
21.758735656137638,0.15518656803477487,-14.683716823755704,-168.96565942972066
21.773772754988741,0.15728558089088568,-14.680267198291549,-168.9669091315742
21.788820245727766,0.15645466672824548,-14.671895982626982,-169.07099530011681
21.803878135536308,0.15753531918068531,-14.69416571632669,-169.01031392661355
21.818946431601059,0.15762358229879175,-14.668900929231473,-168.99340323485811
21.834025141113617,0.15860263860154927,-14.69135871379531,-168.95914243127353
21.84911427127048,0.15803241469436444,-14.708032040745071,-169.05133286030912
21.864213829273197,0.15537017601473355,-14.681226900459897,-169.01837969651098
21.879323822328335,0.15628862776394081,-14.686875382856917,-169.11266597379563
21.894444257647326,0.15801457259575352,-14.675155223753134,-169.02882104458314
21.909575142446656,0.15687400152949557,-14.689074777457989,-169.15768259941044
21.924716483947794,0.15855801194710767,-14.674606694823996,-169.11464537680672
21.939868289377191,0.15801817635897619,-14.655491962559328,-169.0264825445615
21.95503056596629,0.15732719320105804,-14.691052348769677,-169.15498003136062
21.970203320951541,0.15978338060890901,-14.680491498664326,-169.08454128231881
21.985386561574376,0.15841749943073086,-14.68028643312187,-169.14300814532362
22.00058029508126,0.15725145243140337,-14.676746161734664,-169.22017810952806
22.015784528723639,0.15892196870201253,-14.668784438486583,-169.26154176627242
22.030999269758009,0.15790347171769445,-14.666885926425666,-169.29011949135361
22.04622452544578,0.15724374281795728,-14.670157101730908,-169.27824977344613
22.061460303053529,0.15870517238718773,-14.678124358310935,-169.27590370373616
22.076706609852774,0.15894566700726492,-14.685350924755117,-169.3552198296841
22.091963453120016,0.15726627543036997,-14.669937939086381,-169.29893084049866
22.10723084013684,0.15772608558540971,-14.667154030884005,-169.40316157369358
22.122508778189914,0.1592859778634792,-14.661539650988001,-169.33942059709798
22.137797274570818,0.15793306972070223,-14.674618837758551,-169.34533732055138
22.153096336576262,0.15653787146214765,-14.680472892317384,-169.30384155735055
22.168405971507973,0.15875068333627329,-14.666591979254594,-169.4425062761041
22.183726186672722,0.1548270481583886,-14.66507757599808,-169.36867553221163
22.199056989382328,0.1582568345971376,-14.664449703908202,-169.37804730927272
22.214398386953672,0.15772052923441401,-14.664402364598141,-169.4538659648243
22.22975038670868,0.15718005568499571,-14.667493181532903,-169.54929279232283
22.245112995974349,0.15953084244887517,-14.68388325871145,-169.36056814392668
22.260486222082733,0.15854942349465057,-14.665396933846482,-169.47625151303137
22.27587007237095,0.15744730481693889,-14.655987393976647,-169.42207670414589
22.291264554181204,0.15610413996764275,-14.665578849742015,-169.54543022617986
22.306669674860757,0.15733999140532789,-14.657434835062597,-169.5267311037824
22.322085441761971,0.15669614883544708,-14.657833740183028,-169.51343874868439
22.337511862242213,0.15853642140470556,-14.667824505932783,-169.5729283299375
22.352948943664057,0.15950719330757479,-14.67331995867265,-169.54670366192946
22.368396693395102,0.15753056454507786,-14.657305687911087,-169.57285976177383
22.38385511880799,0.15554813757081709,-14.649217793446638,-169.62258742252536
22.399324227280509,0.15839400042898483,-14.659468041166832,-169.62015296881842
22.414804026195615,0.15737558313414976,-14.661558420621501,-169.71398609540185
22.430294522941224,0.15518837737790678,-14.662542503544167,-169.66660098912584
22.44579572491045,0.15583305743117074,-14.631785436564613,-169.74664818975657
22.461307639501491,0.15960002496852005,-14.667534051296105,-169.76043563609079
22.476830274117663,0.15838892877269553,-14.665183843264744,-169.67734413725216
22.492363636167404,0.15576423918140103,-14.646973450933171,-169.71487949499658
22.507907733064254,0.15621605168063601,-14.649962158267194,-169.76451562333631
22.523462572226887,0.15491369194923166,-14.65492591454858,-169.78145522154153
22.539028161079109,0.16018000280920916,-14.647291133944959,-169.92616806712482
22.554604507049849,0.15764322704527528,-14.658324931806854,-169.85398901321634
22.570191617573194,0.15736464915277068,-14.645739702121949,-169.82357999157551
22.585789500088278,0.15623908479990017,-14.649661246373601,-169.82056764836011
22.601398162039516,0.1599904276255221,-14.660273554015417,-169.97416713440842
22.617017610876392,0.15530268843738193,-14.662381775913232,-169.91439282654926
22.632647854053499,0.15582811820524056,-14.645229997708103,-169.89294182091092
22.648288899030621,0.15698546593372381,-14.645076410520158,-169.9111270861174
22.663940753272779,0.15689091502377242,-14.656719639788164,-169.95931212464768
22.679603424250001,0.15782668287020543,-14.645150877413949,-169.96940977534479
22.695276919437578,0.15630160022367115,-14.652568339303594,-169.95858561043104
22.710961246315936,0.15674189970163294,-14.649410478028187,-170.05207971146385
22.72665641237068,0.1572746684031967,-14.640921468644169,-170.12414147902584
22.74236242509258,0.15479447175621103,-14.644818959478762,-169.98304412379164
22.758079291977594,0.15852755929254408,-14.639053212408369,-170.08310049360216
22.773807020526846,0.15459172536252547,-14.645879445840098,-170.06129370821881
22.789545618246649,0.15628666357533311,-14.657590456917921,-170.14856961241952
22.80529509264851,0.15792197198551086,-14.647639439574469,-170.11972980661136
22.821055451249148,0.15778064329310001,-14.64725318285538,-170.08152352568362
22.836826701570374,0.1556891798758388,-14.636220781256561,-170.1056981542101
22.852608851139347,0.15681659991835856,-14.650119638053642,-170.1899354687111
22.868401907488362,0.15917816657192466,-14.647358050237075,-170.20256908344112
22.884205878154852,0.15472025049881091,-14.636144013232864,-170.15002397882697
22.900020770681532,0.15675424684922165,-14.633331294071139,-170.23672724834199
22.915846592616379,0.15890668538603198,-14.645731684362806,-170.28441900776426
22.931683351512461,0.157429333852418,-14.659312168340527,-170.22789752621333
22.947531054928152,0.15812941819531298,-14.639866148533724,-170.21032932664818
22.963389710427016,0.16257543584023135,-14.6524678756603,-170.36390742546229
22.979259325577868,0.15609684026107928,-14.643951447559036,-170.21376666802246
22.995139907954734,0.15825013827721504,-14.628735420026263,-170.24574422690301
23.011031465136885,0.15785664098721258,-14.639669843177854,-170.33305338179389
23.026934004708824,0.15914974788877106,-14.637260815481925,-170.25610225440266
23.042847534260293,0.15898450879734277,-14.630454673163092,-170.34643169229307
23.058772061386289,0.15478929410226774,-14.639473805160211,-170.34095704413119
23.074707593687066,0.15588514002270165,-14.630997810898361,-170.30745853104568
23.090654138768059,0.15956523256508662,-14.628499987300236,-170.42525477351006
23.10661170424008,0.15637632141112712,-14.622383552957377,-170.38269843068309
23.122580297719139,0.15654246456125426,-14.61741115525729,-170.47393606781802
23.138559926826456,0.1581612130869573,-14.637921364036114,-170.36743443747267
23.154550599188578,0.15534813432877673,-14.630246352343388,-170.49418918947615
23.170552322437377,0.15852375955420397,-14.632715221243298,-170.48274963460423
23.186565104209873,0.1599937013187413,-14.639861229251359,-170.50360705848885
23.202588952148439,0.1567660830646383,-14.641032009665309,-170.51295835701578
23.218623873900729,0.15513110801823349,-14.616008934910047,-170.52096995227492
23.234669877119661,0.15778218263510904,-14.620533219965603,-170.53175540555497
23.250726969463461,0.15887573578868086,-14.625604584142257,-170.6032299210849
23.266795158595635,0.15868654358669654,-14.633449816491979,-170.68004785578827
23.282874452184984,0.15806567410862071,-14.62133343316119,-170.51065152366149
23.298964857905617,0.15849141546489154,-14.628099842913024,-170.61889544577821
23.315066383436939,0.15573718008090343,-14.623080231480943,-170.60729391234227
23.331179036463674,0.1563369202634376,-14.636914606392999,-170.64861494139313
23.347302824675836,0.15519386222243739,-14.613194004635035,-170.70281723597139
23.363437755768771,0.15633470659513035,-14.624978332984162,-170.67474417936847
23.379583837443164,0.15760908687328462,-14.625956961811415,-170.72208100811142
23.395741077404949,0.15697447338288348,-14.614222365318373,-170.72326204477071
23.411909483365424,0.15796770230373197,-14.626762311296096,-170.68118851083551
23.428089063041309,0.15717745214599457,-14.615813916221574,-170.66498870275939
23.444279824154485,0.15601941904288602,-14.630837084030796,-170.73429765307353
23.460481774432267,0.15623204671084992,-14.606925038596621,-170.81150465359858
23.476694921607368,0.16022128513023121,-14.62203027455811,-170.70136990291334
23.492919273417705,0.15851381130850509,-14.618703978333439,-170.90671853320185
23.509154837606641,0.16101703447754456,-14.616779202354358,-170.86193605557494
23.525401621922857,0.15643765016361788,-14.618900789849341,-170.77448083563451
23.541659634120407,0.1577620104500071,-14.622954315916941,-170.87306741807774
23.557928881958681,0.1580975143842511,-14.62641582446091,-170.88808835977767
23.57420937320245,0.15766150870130377,-14.627144166698789,-170.93636344962539
23.590501115621837,0.15621233922298325,-14.611650749917541,-170.97375768861616
23.60680411699235,0.15878020145227131,-14.621568095067607,-171.03538029575898
23.623118385094855,0.15724619190879119,-14.611516434147028,-170.99162617453879
23.639443927715629,0.15876803364417932,-14.621059155971437,-171.0052774975988
23.655780752646226,0.1542187951766385,-14.608387929360552,-170.94307603991192
23.67212886768375,0.15396635003672635,-14.595401410494212,-171.08035535424304
23.688488280630583,0.15865518250948207,-14.626016654435874,-171.0407207188006
23.704858999294494,0.15893656169064865,-14.621194610921506,-171.01557979459449
23.721241031488663,0.15581960757001365,-14.59838720662372,-171.02893325052059
23.737634385031757,0.15519045993247077,-14.604521691339613,-171.06249647779435
23.754039067747698,0.15664242711804985,-14.604710449492339,-171.0325514350213
23.770455087465916,0.15794578310054297,-14.601815239344925,-171.23817450092608
23.786882452021221,0.15916177579013824,-14.620234118937578,-171.13629010095491
